'connect'
[07/02/2013 14:56:27] - Open port C

[07/02/2013 14:56:28] - Written data
02 03 10 04 00 02 81 39                         	......�9             addr 2, read reg from 0x1004, 2 regs

'get'
[07/02/2013 14:56:43] - Read data
02 03 04 ff 04 00 00 b8 e6                      	...�...��            data = 0xff04 0x0000

[07/02/2013 14:56:43] - Written data
02 03 10 10 00 02 c1 3d                         	......�=             read reg from 0x1010, 2 regs

'autocount'
[07/02/2013 14:56:57] - Read data
02 03 04 02 58 0a 00 4f f8                      	....X..O�            data = 0x0258 0x0a00

[07/02/2013 14:56:57] - Written data
02 03 10 14 00 02 80 fc                         	......��             read reg from 0x1014, 2 regs

'save'
[07/02/2013 14:57:07] - Read data
02 03 04 01 71 02 00 99 b4                      	....q..��            data = 0x0171 0x0200

[07/02/2013 14:57:07] - Written data
02 03 10 08 00 03 80 fa                         	......��             read reg from 0x1008, 3 regs

'write'
[07/02/2013 14:57:14] - Read data
02 03 06 00 5f 00 78 00 3c 21 80                	...._.x.<!�          data = 0x005f 0x0078 0x003c

[07/02/2013 14:58:09] - Written data
# there are two columns here. The left one writes the temp, the right one the time in seconds.
# There are 40 pairs of temp/time.
# the table starts at 0x2000.
02 06 20 00 00 46 03 cb 02 06 20 02 00 0c 23 fc 	.. ..F.�.. ...#�     write 1 reg, addr 0x2000, v = 0x0046 | addr 0x2002, v=000c
02 06 20 04 00 5a 43 c3 02 06 20 06 00 14 62 37 	.. ..ZC�.. ...b7
02 06 20 08 00 6e 82 17 02 06 20 0a 00 08 a3 fd 	.. ..n�... ...��
02 06 20 0c 00 78 42 18 02 06 20 0e 00 05 23 f9 	.. ..xB... ...#�
02 06 20 10 00 87 c3 9e 02 06 20 12 00 05 e2 3f 	.. ..�Þ.. ...�?
02 06 20 14 00 8c c3 98 02 06 20 16 00 05 a3 fe 	.. ..�Ø.. ...��
02 06 20 18 00 96 82 50 02 06 20 1a 00 08 a2 38 	.. ..��P.. ...�8
02 06 20 1c 00 9b 02 54 02 06 20 1e 00 0a 62 38 	.. ..�.T.. ...b8
02 06 20 20 00 9e 02 5b 02 06 20 22 00 0a a2 34 	..  .�.[.. "..�4
02 06 20 24 00 9f 82 5a 02 06 20 26 00 0a e3 f5 	.. $.��Z.. &..��
02 06 20 28 00 a2 83 88 02 06 20 2a 00 0a 23 f6 	.. (.���.. *..#�
02 06 20 2c 00 a3 03 89 02 06 20 2e 00 0a 62 37 	.. ,.�.�.. ...b7
02 06 20 30 00 a4 83 8d 02 06 20 32 00 0a a3 f1 	.. 0.���.. 2..��
02 06 20 34 00 a5 03 8c 02 06 20 36 00 0a e2 30 	.. 4.�.�.. 6..�0
02 06 20 38 00 a6 83 8e 02 06 20 3a 00 0a 22 33 	.. 8.���.. :.."3
02 06 20 3c 00 a7 03 8f 02 06 20 3e 00 0a 63 f2 	.. <.�.�.. >..c�
02 06 20 40 00 a8 82 53 02 06 20 42 00 0a a2 2a 	.. @.��S.. B..�*
02 06 20 44 00 a9 02 52 02 06 20 46 00 0a e3 eb 	.. D.�.R.. F..��
02 06 20 48 00 aa 82 50 02 06 20 4a 00 0a 23 e8 	.. H.��P.. J..#�
02 06 20 4c 00 ab 02 51 02 06 20 4e 00 03 a2 2f 	.. L.�.Q.. N..�/
02 06 20 50 00 ac 82 55 02 06 20 52 00 01 e2 28 	.. P.��U.. R..�(
02 06 20 54 00 ad 02 54 02 06 20 56 00 01 a3 e9 	.. T.�.T.. V..��
02 06 20 58 00 ae 82 56 02 06 20 5a 00 03 e2 2b 	.. X.��V.. Z..�+
02 06 20 5c 00 af 02 57 02 06 20 5e 00 05 23 e8 	.. \.�.W.. ^..#�
02 06 20 60 00 be 02 57 02 06 20 62 00 14 23 e8 	.. `.�.W.. b..#�
02 06 20 64 00 c8 c2 70 02 06 20 66 00 05 a2 25 	.. d.��p.. f..�%
02 06 20 68 00 d2 83 b8 02 06 20 6a 00 0a 22 22 	.. h.҃�.. j..""
02 06 20 6c 00 dc 43 bd 02 06 20 6e 00 0f a3 e0 	.. l.�C�.. n..��
02 06 20 70 00 e6 02 68 02 06 20 72 00 0f 62 26 	.. p.�.h.. r..b&
02 06 20 74 00 eb 82 6c 02 06 20 76 00 14 63 ec 	.. t.�l.. v..c�
02 06 20 78 00 f0 02 64 02 06 20 7a 00 19 62 2a 	.. x.�.d.. z..b*
02 06 20 7c 00 f2 c2 64 02 06 20 7e 00 1e 62 29 	.. |.��d.. ~..b)
02 06 20 80 00 f3 c3 94 02 06 20 82 00 1e a2 19 	.. �.�Ô.. �..�.
02 06 20 84 00 f5 02 57 02 06 20 86 00 0a e3 d7 	.. �.�.W.. �..��
02 06 20 88 00 fa 82 50 02 06 20 8a 00 08 a2 15 	.. �.�P.. �..�.
02 06 20 8c 00 8c 42 77 02 06 20 8e 00 0a 62 15 	.. �.�Bw.. �..b.
02 06 20 90 00 5a 02 2f 02 06 20 92 00 1e a3 dc 	.. �.Z./.. �..��
02 06 20 94 00 28 c3 cb 02 06 20 96 00 1e e2 1d 	.. �.(��.. �..�.
02 06 20 98 00 0a 83 d1 02 06 20 9a 00 1e 22 1e 	.. �..��.. �..".
02 06 20 9c 00 01 83 d7 02 06 20 9e 00 96 63 b9 	.. �..��.. �.�c�
02 06 10 14 01 71 0c 89                         	.....q.�                        # write register 0x1014 with 0x0171        

'close'
[07/02/2013 14:59:49] - Close port COM1

'open com'
[07/02/2013 15:00:40] - Open port C

'begin check'
[07/02/2013 15:02:23] - Written data
02 03 20 00 00 50 4e 05                         	.. ..PN.        

[07/02/2013 15:02:26] - Read data
02 03 a0 00 46 00 0c 00 5a 00 14 00 6e 00 08 00 	..�.F...Z...n...
78 00 05 00 87 00 05 00 8c 00 05 00 96 00 08 00 	x...�...�...�...
9b 00 0a 00 9e 00 0a 00 9f 00 0a 00 a2 00 0a 00 	�...�...�...�...
a3 00 0a 00 a4 00 0a 00 a5 00 0a 00 a6 00 0a 00 	�...�...�...�...
a7 00 0a 00 a8 00 0a 00 a9 00 0a 00 aa 00 0a 00 	�...�...�...�...
ab 00 03 00 ac 00 01 00 ad 00 01 00 ae 00 03 00 	�...�...�...�...
af 00 05 00 be 00 14 00 c8 00 05 00 d2 00 0a 00 	�...�...�...�...
dc 00 0f 00 e6 00 0f 00 eb 00 14 00 f0 00 19 00 	�...�...�...�...
f2 00 1e 00 f3 00 1e 00 f5 00 0a 00 fa 00 08 00 	�...�...�...�...
8c 00 0a 00 5a 00 1e 00 28 00 1e 00 0a 00 1e 00 	�...Z...(.......
01 00 96 d1 7a                                  	..��z           

[07/02/2013 15:02:27] - Written data
02 06 10 18 00 01 cc fe                         	......��        

[07/02/2013 15:02:27] - Read data
02 06 10 18 ec 57                               	....�W          

[07/02/2013 15:02:28] - Written data
02 03 10 00 00 04 40 fa                         	......@�        

[07/02/2013 15:02:28] - Read data
02 03 08 00 19 00 46 ff 04 00 00 ea 48          	......F�...�H   

[07/02/2013 15:02:29] - Written data
02 03 10 00 00 04 40 fa                         	......@�        

[07/02/2013 15:02:29] - Read data
02 03 08 00 19 00 46 ff 04 00 00 ea 48          	......F�...�H   

[07/02/2013 15:02:30] - Written data
02 03 10 00 00 04 40 fa                         	......@�        

[07/02/2013 15:02:30] - Read data
02 03 08 00 19 00 46 ff 04 00 00 ea 48          	......F�...�H   

[07/02/2013 15:02:31] - Written data
02 03 10 00 00 04 40 fa                         	......@�        

[07/02/2013 15:02:31] - Read data
02 03 08 00 19 00 46 ff 04 00 00 ea 48          	......F�...�H   

[07/02/2013 15:02:32] - Written data
02 03 10 00 00 04 40 fa                         	......@�        

[07/02/2013 15:02:32] - Read data
02 03 08 00 19 00 46 ff 04 00 00 ea 48          	......F�...�H   

[07/02/2013 15:02:33] - Written data
02 03 10 00 00 04 40 fa                         	......@�        

[07/02/2013 15:02:33] - Read data
02 03 08 00 19 00 46 ff 04 00 00 ea 48          	......F�...�H   

[07/02/2013 15:02:34] - Written data
02 03 10 00 00 04 40 fa                         	......@�        

[07/02/2013 15:02:34] - Read data
02 03 08 00 19 00 46 ff 04 00 00 ea 48          	......F�...�H   

[07/02/2013 15:02:35] - Written data
02 03 10 00 00 04 40 fa                         	......@�        

[07/02/2013 15:02:35] - Read data
02 03 08 00 1a 00 46 ff 04 00 00 d9 48          	......F�...�H   

[07/02/2013 15:02:36] - Written data
02 03 10 00 00 04 40 fa                         	......@�        

[07/02/2013 15:02:36] - Read data
02 03 08 00 1a 00 46 ff 04 00 00 d9 48          	......F�...�H   

[07/02/2013 15:02:37] - Written data
02 03 10 00 00 04 40 fa                         	......@�        

[07/02/2013 15:02:37] - Read data
02 03 08 00 1b 00 46 ff 04 00 00 c9 88          	......F�...Ɉ   

[07/02/2013 15:02:38] - Written data
02 03 10 00 00 04 40 fa                         	......@�        

[07/02/2013 15:02:38] - Read data
02 03 08 00 1c 00 46 ff 04 00 00 bf 48          	......F�...�H   

[07/02/2013 15:02:39] - Written data
02 03 10 00 00 04 40 fa                         	......@�        

[07/02/2013 15:02:39] - Read data
02 03 08 00 1e 00 5a ff 04 00 00 4d 4a          	......Z�...MJ   

[07/02/2013 15:02:40] - Written data
02 03 10 00 00 04 40 fa                         	......@�        

[07/02/2013 15:02:40] - Read data
02 03 08 00 1f 00 5a ff 04 00 00 5d 8a          	......Z�...]�   

[07/02/2013 15:02:41] - Written data
02 03 10 00 00 04 40 fa                         	......@�        

[07/02/2013 15:02:41] - Read data
02 03 08 00 21 00 5a ff 04 00 00 82 49          	....!.Z�...�I   

[07/02/2013 15:02:42] - Written data
02 03 10 00 00 04 40 fa                         	......@�        

[07/02/2013 15:02:42] - Read data
02 03 08 00 22 00 5a ff 04 00 00 b1 49          	....".Z�...�I   

[07/02/2013 15:02:43] - Written data
02 03 10 00 00 04 40 fa                         	......@�        

[07/02/2013 15:02:43] - Read data
02 03 08 00 25 00 5a ff 04 00 00 c7 89          	....%.Z�...ǉ   

[07/02/2013 15:02:44] - Written data
02 03 10 00 00 04 40 fa                         	......@�        

[07/02/2013 15:02:44] - Read data
02 03 08 00 26 00 5a ff 04 00 00 f4 89          	....&.Z�...�   

[07/02/2013 15:02:45] - Written data
02 03 10 00 00 04 40 fa                         	......@�        

[07/02/2013 15:02:45] - Read data
02 03 08 00 27 00 5a ff 04 00 00 e4 49          	....'.Z�...�I   

[07/02/2013 15:02:46] - Written data
02 03 10 00 00 04 40 fa                         	......@�        

[07/02/2013 15:02:46] - Read data
02 03 08 00 2a 00 5a ff 04 00 00 38 89          	....*.Z�...8�   

[07/02/2013 15:02:47] - Written data
02 03 10 00 00 04 40 fa                         	......@�        

[07/02/2013 15:02:47] - Read data
02 03 08 00 2c 00 5a ff 04 00 00 5e 89          	....,.Z�...^�   

[07/02/2013 15:02:48] - Written data
02 03 10 00 00 04 40 fa                         	......@�        

[07/02/2013 15:02:48] - Read data
02 03 08 00 2d 00 5a ff 04 00 00 4e 49          	....-.Z�...NI   

[07/02/2013 15:02:49] - Written data
02 03 10 00 00 04 40 fa                         	......@�        

[07/02/2013 15:02:49] - Read data
02 03 08 00 30 00 5a ff 04 00 00 83 48          	....0.Z�...�H   

[07/02/2013 15:02:50] - Written data
02 03 10 00 00 04 40 fa                         	......@�        

[07/02/2013 15:02:50] - Read data
02 03 08 00 31 00 5a ff 04 00 00 93 88          	....1.Z�...��   

[07/02/2013 15:02:51] - Written data
02 03 10 00 00 04 40 fa                         	......@�        

[07/02/2013 15:02:51] - Read data
02 03 08 00 32 00 5a ff 04 00 00 a0 88          	....2.Z�...��   

[07/02/2013 15:02:52] - Written data
02 03 10 00 00 04 40 fa                         	......@�        

[07/02/2013 15:02:52] - Read data
02 03 08 00 35 00 5a ff 04 00 00 d6 48          	....5.Z�...�H   

[07/02/2013 15:02:53] - Written data
02 03 10 00 00 04 40 fa                         	......@�        

[07/02/2013 15:02:53] - Read data
02 03 08 00 37 00 5a ff 04 00 00 f5 88          	....7.Z�...��   

[07/02/2013 15:02:54] - Written data
02 03 10 00 00 04 40 fa                         	......@�        

[07/02/2013 15:02:54] - Read data
02 03 08 00 38 00 5a ff 04 00 00 0a 88          	....8.Z�....�   

[07/02/2013 15:02:55] - Written data
02 03 10 00 00 04 40 fa                         	......@�        

[07/02/2013 15:02:55] - Read data
02 03 08 00 3a 00 5a ff 04 00 00 29 48          	....:.Z�...)H   

[07/02/2013 15:02:56] - Written data
02 03 10 00 00 04 40 fa                         	......@�        

[07/02/2013 15:02:56] - Read data
02 03 08 00 3c 00 5a ff 04 00 00 4f 48          	....<.Z�...OH   

[07/02/2013 15:02:57] - Written data
02 03 10 00 00 04 40 fa                         	......@�        

[07/02/2013 15:02:57] - Read data
02 03 08 00 3d 00 5a ff 04 00 00 5f 88          	....=.Z�..._�   

[07/02/2013 15:02:58] - Written data
02 03 10 00 00 04 40 fa                         	......@�        

[07/02/2013 15:02:58] - Read data
02 03 08 00 3e 00 5a ff 04 00 00 6c 88          	....>.Z�...l�   

[07/02/2013 15:02:59] - Written data
02 03 10 00 00 04 40 fa                         	......@�        

[07/02/2013 15:03:00] - Read data
02 03 08 00 41 00 6e ff 04 00 00 53 8b          	....A.n�...S�   

[07/02/2013 15:03:00] - Written data
02 03 10 00 00 04 40 fa                         	......@�        

[07/02/2013 15:03:01] - Read data
02 03 08 00 42 00 6e ff 04 00 00 60 8b          	....B.n�...`�   

[07/02/2013 15:03:01] - Written data
02 03 10 00 00 04 40 fa                         	......@�        

[07/02/2013 15:03:02] - Read data
02 03 08 00 43 00 6e ff 04 00 00 70 4b          	....C.n�...pK   

[07/02/2013 15:03:02] - Written data
02 03 10 00 00 04 40 fa                         	......@�        

[07/02/2013 15:03:02] - Read data
02 03 08 00 45 00 6e ff 04 00 00 16 4b          	....E.n�....K   

[07/02/2013 15:03:03] - Written data
02 03 10 00 00 04 40 fa                         	......@�        

[07/02/2013 15:03:04] - Read data
02 03 08 00 46 00 6e ff 04 00 00 25 4b          	....F.n�...%K   

[07/02/2013 15:03:04] - Written data
02 03 10 00 00 04 40 fa                         	......@�        

[07/02/2013 15:03:05] - Read data
02 03 08 00 47 00 6e ff 04 00 00 35 8b          	....G.n�...5�   

[07/02/2013 15:03:05] - Written data
02 03 10 00 00 04 40 fa                         	......@�        

[07/02/2013 15:03:06] - Read data
02 03 08 00 49 00 6e ff 04 00 00 da 4b          	....I.n�...�K   

[07/02/2013 15:03:06] - Written data
02 03 10 00 00 04 40 fa                         	......@�        

[07/02/2013 15:03:07] - Read data
02 03 08 00 4a 00 6e ff 04 00 00 e9 4b          	....J.n�...�K   

[07/02/2013 15:03:07] - Written data
02 03 10 00 00 04 40 fa                         	......@�        

[07/02/2013 15:03:08] - Read data
02 03 08 00 4b 00 78 ff 04 00 00 b0 48          	....K.x�...�H   

[07/02/2013 15:03:08] - Written data
02 03 10 00 00 04 40 fa                         	......@�        

[07/02/2013 15:03:09] - Read data
02 03 08 00 4d 00 78 ff 04 00 00 d6 48          	....M.x�...�H   

[07/02/2013 15:03:09] - Written data
02 03 10 00 00 04 40 fa                         	......@�        

[07/02/2013 15:03:10] - Read data
02 03 08 00 4e 00 78 ff 04 00 00 e5 48          	....N.x�...�H   

[07/02/2013 15:03:10] - Written data
02 03 10 00 00 04 40 fa                         	......@�        

[07/02/2013 15:03:11] - Read data
02 03 08 00 4f 00 78 ff 04 00 00 f5 88          	....O.x�...��   

[07/02/2013 15:03:11] - Written data
02 03 10 00 00 04 40 fa                         	......@�        

[07/02/2013 15:03:12] - Read data
02 03 08 00 50 00 78 ff 04 00 00 1b 49          	....P.x�....I   

[07/02/2013 15:03:12] - Written data
02 03 10 00 00 04 40 fa                         	......@�        

[07/02/2013 15:03:13] - Read data
02 03 08 00 53 00 87 ff 04 00 00 3c 5d          	....S.��...<]   

[07/02/2013 15:03:13] - Written data
02 03 10 00 00 04 40 fa                         	......@�        

[07/02/2013 15:03:14] - Read data
02 03 08 00 55 00 87 ff 04 00 00 5a 5d          	....U.��...Z]   

[07/02/2013 15:03:14] - Written data
02 03 10 00 00 04 40 fa                         	......@�        

[07/02/2013 15:03:15] - Read data
02 03 08 00 56 00 87 ff 04 00 00 69 5d          	....V.��...i]   

[07/02/2013 15:03:15] - Written data
02 03 10 00 00 04 40 fa                         	......@�        

[07/02/2013 15:03:16] - Read data
02 03 08 00 59 00 87 ff 04 00 00 96 5d          	....Y.��...�]   

[07/02/2013 15:03:16] - Written data
02 03 10 00 00 04 40 fa                         	......@�        

[07/02/2013 15:03:17] - Read data
02 03 08 00 5a 00 87 ff 04 00 00 a5 5d          	....Z.��...�]   

[07/02/2013 15:03:17] - Written data
02 03 10 00 00 04 40 fa                         	......@�        

[07/02/2013 15:03:18] - Read data
02 03 08 00 5b 00 8c ff 04 00 00 10 5c          	....[.��....\   

[07/02/2013 15:03:18] - Written data
02 03 10 00 00 04 40 fa                         	......@�        

[07/02/2013 15:03:19] - Read data
02 03 08 00 5d 00 8c ff 04 00 00 76 5c          	....].��...v\   

[07/02/2013 15:03:19] - Written data
02 03 10 00 00 04 40 fa                         	......@�        

[07/02/2013 15:03:20] - Read data
02 03 08 00 5f 00 8c ff 04 00 00 55 9c          	...._.��...U�   

[07/02/2013 15:03:20] - Written data
02 03 10 00 00 04 40 fa                         	......@�        

[07/02/2013 15:03:21] - Read data
02 03 08 00 60 00 8c ff 04 00 00 9a 9f          	....`.��...��   

[07/02/2013 15:03:21] - Written data
02 03 10 00 00 04 40 fa                         	......@�        

[07/02/2013 15:03:22] - Read data
02 03 08 00 62 00 8c ff 04 00 00 b9 5f          	....b.��...�_   

[07/02/2013 15:03:22] - Written data
02 03 10 00 00 04 40 fa                         	......@�        

[07/02/2013 15:03:23] - Read data
02 03 08 00 63 00 96 ff 04 00 00 f0 5d          	....c.��...�]   

[07/02/2013 15:03:23] - Written data
02 03 10 00 00 04 40 fa                         	......@�        

[07/02/2013 15:03:24] - Read data
02 03 08 00 64 00 96 ff 04 00 00 86 9d          	....d.��...��   

[07/02/2013 15:03:24] - Written data
02 03 10 00 00 04 40 fa                         	......@�        

[07/02/2013 15:03:25] - Read data
02 03 08 00 67 00 96 ff 04 00 00 b5 9d          	....g.��...��   

[07/02/2013 15:03:25] - Written data
02 03 10 00 00 04 40 fa                         	......@�        

[07/02/2013 15:03:26] - Read data
02 03 08 00 68 00 96 ff 04 00 00 4a 9d          	....h.��...J�   

[07/02/2013 15:03:26] - Written data
02 03 10 00 00 04 40 fa                         	......@�        

[07/02/2013 15:03:27] - Read data
02 03 08 00 69 00 96 ff 04 00 00 5a 5d          	....i.��...Z]   

[07/02/2013 15:03:27] - Written data
02 03 10 00 00 04 40 fa                         	......@�        

[07/02/2013 15:03:28] - Read data
02 03 08 00 6a 00 96 ff 04 00 00 69 5d          	....j.��...i]   

[07/02/2013 15:03:28] - Written data
02 03 10 00 00 04 40 fa                         	......@�        

[07/02/2013 15:03:29] - Read data
02 03 08 00 6d 00 96 ff 04 00 00 1f 9d          	....m.��....�   

[07/02/2013 15:03:29] - Written data
02 03 10 00 00 04 40 fa                         	......@�        

[07/02/2013 15:03:30] - Read data
02 03 08 00 6e 00 96 ff 04 00 00 2c 9d          	....n.��...,�   

[07/02/2013 15:03:30] - Written data
02 03 10 00 00 04 40 fa                         	......@�        

[07/02/2013 15:03:31] - Read data
02 03 08 00 6f 00 9b ff 04 00 00 11 9c          	....o.��....�   

[07/02/2013 15:03:31] - Written data
02 03 10 00 00 04 40 fa                         	......@�        

[07/02/2013 15:03:32] - Read data
02 03 08 00 72 00 9b ff 04 00 00 dc 9d          	....r.��...ܝ   

[07/02/2013 15:03:32] - Written data
02 03 10 00 00 04 40 fa                         	......@�        

[07/02/2013 15:03:33] - Read data
02 03 08 00 73 00 9b ff 04 00 00 cc 5d          	....s.��...�]   

[07/02/2013 15:03:33] - Written data
02 03 10 00 00 04 40 fa                         	......@�        

[07/02/2013 15:03:34] - Read data
02 03 08 00 74 00 9b ff 04 00 00 ba 9d          	....t.��...��   

[07/02/2013 15:03:34] - Written data
02 03 10 00 00 04 40 fa                         	......@�        

[07/02/2013 15:03:35] - Read data
02 03 08 00 76 00 9b ff 04 00 00 99 5d          	....v.��...�]   

[07/02/2013 15:03:36] - Written data
02 03 10 00 00 04 40 fa                         	......@�        

[07/02/2013 15:03:36] - Read data
02 03 08 00 77 00 9b ff 04 00 00 89 9d          	....w.��...��   

[07/02/2013 15:03:37] - Written data
02 03 10 00 00 04 40 fa                         	......@�        

[07/02/2013 15:03:37] - Read data
02 03 08 00 78 00 9b ff 04 00 00 76 9d          	....x.��...v�   

[07/02/2013 15:03:37] - Written data
02 03 10 00 00 04 40 fa                         	......@�        

[07/02/2013 15:03:38] - Read data
02 03 08 00 7a 00 9b ff 04 00 00 55 5d          	....z.��...U]   

[07/02/2013 15:03:39] - Written data
02 03 10 00 00 04 40 fa                         	......@�        

[07/02/2013 15:03:39] - Read data
02 03 08 00 7b 00 9b ff 04 00 00 45 9d          	....{.��...E�   

[07/02/2013 15:03:40] - Written data
02 03 10 00 00 04 40 fa                         	......@�        

[07/02/2013 15:03:40] - Read data
02 03 08 00 7d 00 9b ff 04 00 00 23 9d          	....}.��...#�   

[07/02/2013 15:03:41] - Written data
02 03 10 00 00 04 40 fa                         	......@�        

[07/02/2013 15:03:41] - Read data
02 03 08 00 7e 00 9e ff 04 00 00 dc 9d          	....~.��...ܝ   

[07/02/2013 15:03:42] - Written data
02 03 10 00 00 04 40 fa                         	......@�        

[07/02/2013 15:03:42] - Read data
02 03 08 00 7f 00 9e ff 04 00 00 cc 5d          	.....��...�]   

[07/02/2013 15:03:43] - Written data
02 03 10 00 00 04 40 fa                         	......@�        

[07/02/2013 15:03:43] - Read data
02 03 08 00 7f 00 9e ff 04 00 00 cc 5d          	.....��...�]   

[07/02/2013 15:03:44] - Written data
02 03 10 00 00 04 40 fa                         	......@�        

[07/02/2013 15:03:44] - Read data
02 03 08 00 80 00 9e ff 04 00 00 c3 52          	....�.��...�R   

[07/02/2013 15:03:45] - Written data
02 03 10 00 00 04 40 fa                         	......@�        

[07/02/2013 15:03:45] - Read data
02 03 08 00 80 00 9e ff 04 00 00 c3 52          	....�.��...�R   

[07/02/2013 15:03:46] - Written data
02 03 10 00 00 04 40 fa                         	......@�        

[07/02/2013 15:03:46] - Read data
02 03 08 00 80 00 9e ff 04 00 00 c3 52          	....�.��...�R   

[07/02/2013 15:03:47] - Written data
02 03 10 00 00 04 40 fa                         	......@�        

[07/02/2013 15:03:47] - Read data
02 03 08 00 80 00 9e ff 04 00 00 c3 52          	....�.��...�R   

[07/02/2013 15:03:48] - Written data
02 03 10 00 00 04 40 fa                         	......@�        

[07/02/2013 15:03:48] - Read data
02 03 08 00 80 00 9e ff 04 00 00 c3 52          	....�.��...�R   

[07/02/2013 15:03:49] - Written data
02 03 10 00 00 04 40 fa                         	......@�        

[07/02/2013 15:03:49] - Read data
02 03 08 00 80 00 9e ff 04 00 00 c3 52          	....�.��...�R   

[07/02/2013 15:03:50] - Written data
02 03 10 00 00 04 40 fa                         	......@�        

[07/02/2013 15:03:50] - Read data
02 03 08 00 80 00 9e ff 04 00 00 c3 52          	....�.��...�R   

[07/02/2013 15:03:51] - Written data
02 03 10 00 00 04 40 fa                         	......@�        

[07/02/2013 15:03:51] - Read data
02 03 08 00 81 00 9f ff 04 00 00 ee 52          	....�.��...�R   

[07/02/2013 15:03:52] - Written data
02 03 10 00 00 04 40 fa                         	......@�        

[07/02/2013 15:03:52] - Read data
02 03 08 00 81 00 9f ff 04 00 00 ee 52          	....�.��...�R   

[07/02/2013 15:03:53] - Written data
02 03 10 00 00 04 40 fa                         	......@�        

[07/02/2013 15:03:53] - Read data
02 03 08 00 82 00 9f ff 04 00 00 dd 52          	....�.��...�R   

[07/02/2013 15:03:54] - Written data
02 03 10 00 00 04 40 fa                         	......@�        

[07/02/2013 15:03:54] - Read data
02 03 08 00 82 00 9f ff 04 00 00 dd 52          	....�.��...�R   

[07/02/2013 15:03:55] - Written data
02 03 10 00 00 04 40 fa                         	......@�        

[07/02/2013 15:03:55] - Read data
02 03 08 00 83 00 9f ff 04 00 00 cd 92          	....�.��...͒   

[07/02/2013 15:03:56] - Written data
02 03 10 00 00 04 40 fa                         	......@�        

[07/02/2013 15:03:56] - Read data
02 03 08 00 83 00 9f ff 04 00 00 cd 92          	....�.��...͒   

[07/02/2013 15:03:57] - Written data
02 03 10 00 00 04 40 fa                         	......@�        

[07/02/2013 15:03:57] - Read data
02 03 08 00 84 00 9f ff 04 00 00 bb 52          	....�.��...�R   

[07/02/2013 15:03:58] - Written data
02 03 10 00 00 04 40 fa                         	......@�        

[07/02/2013 15:03:58] - Read data
02 03 08 00 84 00 9f ff 04 00 00 bb 52          	....�.��...�R   

[07/02/2013 15:03:59] - Written data
02 03 10 00 00 04 40 fa                         	......@�        

[07/02/2013 15:03:59] - Read data
02 03 08 00 85 00 9f ff 04 00 00 ab 92          	....�.��...��   

[07/02/2013 15:04:00] - Written data
02 03 10 00 00 04 40 fa                         	......@�        

[07/02/2013 15:04:00] - Read data
02 03 08 00 86 00 9f ff 04 00 00 98 92          	....�.��...��   

[07/02/2013 15:04:01] - Written data
02 03 10 00 00 04 40 fa                         	......@�        

[07/02/2013 15:04:01] - Read data
02 03 08 00 86 00 a2 ff 04 00 00 f5 57          	....�.��...�W   

[07/02/2013 15:04:02] - Written data
02 03 10 00 00 04 40 fa                         	......@�        

[07/02/2013 15:04:02] - Read data
02 03 08 00 87 00 a2 ff 04 00 00 e5 97          	....�.��...�   

[07/02/2013 15:04:03] - Written data
02 03 10 00 00 04 40 fa                         	......@�        

[07/02/2013 15:04:03] - Read data
02 03 08 00 87 00 a2 ff 04 00 00 e5 97          	....�.��...�   

[07/02/2013 15:04:04] - Written data
02 03 10 00 00 04 40 fa                         	......@�        

[07/02/2013 15:04:04] - Read data
02 03 08 00 87 00 a2 ff 04 00 00 e5 97          	....�.��...�   

[07/02/2013 15:04:05] - Written data
02 03 10 00 00 04 40 fa                         	......@�        

[07/02/2013 15:04:05] - Read data
02 03 08 00 88 00 a2 ff 04 00 00 1a 97          	....�.��....�   

[07/02/2013 15:04:06] - Written data
02 03 10 00 00 04 40 fa                         	......@�        

[07/02/2013 15:04:06] - Read data
02 03 08 00 89 00 a2 ff 04 00 00 0a 57          	....�.��....W   

[07/02/2013 15:04:07] - Written data
02 03 10 00 00 04 40 fa                         	......@�        

[07/02/2013 15:04:07] - Read data
02 03 08 00 8a 00 a2 ff 04 00 00 39 57          	....�.��...9W   

[07/02/2013 15:04:08] - Written data
02 03 10 00 00 04 40 fa                         	......@�        

[07/02/2013 15:04:08] - Read data
02 03 08 00 8b 00 a2 ff 04 00 00 29 97          	....�.��...)�   

[07/02/2013 15:04:09] - Written data
02 03 10 00 00 04 40 fa                         	......@�        

[07/02/2013 15:04:10] - Read data
02 03 08 00 8b 00 a2 ff 04 00 00 29 97          	....�.��...)�   

[07/02/2013 15:04:10] - Written data
02 03 10 00 00 04 40 fa                         	......@�        

[07/02/2013 15:04:11] - Read data
02 03 08 00 8c 00 a2 ff 04 00 00 5f 57          	....�.��..._W   

[07/02/2013 15:04:11] - Written data
02 03 10 00 00 04 40 fa                         	......@�        

[07/02/2013 15:04:11] - Read data
02 03 08 00 8c 00 a3 ff 04 00 00 62 97          	....�.��...b�   

[07/02/2013 15:04:12] - Written data
02 03 10 00 00 04 40 fa                         	......@�        

[07/02/2013 15:04:13] - Read data
02 03 08 00 8c 00 a3 ff 04 00 00 62 97          	....�.��...b�   

[07/02/2013 15:04:13] - Written data
02 03 10 00 00 04 40 fa                         	......@�        

[07/02/2013 15:04:14] - Read data
02 03 08 00 8d 00 a3 ff 04 00 00 72 57          	....�.��...rW   

[07/02/2013 15:04:14] - Written data
02 03 10 00 00 04 40 fa                         	......@�        

[07/02/2013 15:04:15] - Read data
02 03 08 00 8e 00 a3 ff 04 00 00 41 57          	....�.��...AW   

[07/02/2013 15:04:15] - Written data
02 03 10 00 00 04 40 fa                         	......@�        

[07/02/2013 15:04:16] - Read data
02 03 08 00 8e 00 a3 ff 04 00 00 41 57          	....�.��...AW   

[07/02/2013 15:04:16] - Written data
02 03 10 00 00 04 40 fa                         	......@�        

[07/02/2013 15:04:17] - Read data
02 03 08 00 8e 00 a3 ff 04 00 00 41 57          	....�.��...AW   

[07/02/2013 15:04:17] - Written data
02 03 10 00 00 04 40 fa                         	......@�        

[07/02/2013 15:04:18] - Read data
02 03 08 00 8e 00 a3 ff 04 00 00 41 57          	....�.��...AW   

[07/02/2013 15:04:18] - Written data
02 03 10 00 00 04 40 fa                         	......@�        

[07/02/2013 15:04:19] - Read data
02 03 08 00 8f 00 a3 ff 04 00 00 51 97          	....�.��...Q�   

[07/02/2013 15:04:19] - Written data
02 03 10 00 00 04 40 fa                         	......@�        

[07/02/2013 15:04:20] - Read data
02 03 08 00 8f 00 a3 ff 04 00 00 51 97          	....�.��...Q�   

[07/02/2013 15:04:20] - Written data
02 03 10 00 00 04 40 fa                         	......@�        

[07/02/2013 15:04:21] - Read data
02 03 08 00 8f 00 a3 ff 04 00 00 51 97          	....�.��...Q�   

[07/02/2013 15:04:21] - Written data
02 03 10 00 00 04 40 fa                         	......@�        

[07/02/2013 15:04:22] - Read data
02 03 08 00 8f 00 a4 ff 04 00 00 e4 57          	....�.��...�W   

[07/02/2013 15:04:22] - Written data
02 03 10 00 00 04 40 fa                         	......@�        

[07/02/2013 15:04:23] - Read data
02 03 08 00 90 00 a4 ff 04 00 00 0a 96          	....�.��....�   

[07/02/2013 15:04:23] - Written data
02 03 10 00 00 04 40 fa                         	......@�        

[07/02/2013 15:04:24] - Read data
02 03 08 00 90 00 a4 ff 04 00 00 0a 96          	....�.��....�   

[07/02/2013 15:04:24] - Written data
02 03 10 00 00 04 40 fa                         	......@�        

[07/02/2013 15:04:25] - Read data
02 03 08 00 90 00 a4 ff 04 00 00 0a 96          	....�.��....�   

[07/02/2013 15:04:25] - Written data
02 03 10 00 00 04 40 fa                         	......@�        

[07/02/2013 15:04:26] - Read data
02 03 08 00 90 00 a4 ff 04 00 00 0a 96          	....�.��....�   

[07/02/2013 15:04:26] - Written data
02 03 10 00 00 04 40 fa                         	......@�        

[07/02/2013 15:04:27] - Read data
02 03 08 00 91 00 a4 ff 04 00 00 1a 56          	....�.��....V   

[07/02/2013 15:04:27] - Written data
02 03 10 00 00 04 40 fa                         	......@�        

[07/02/2013 15:04:28] - Read data
02 03 08 00 92 00 a4 ff 04 00 00 29 56          	....�.��...)V   

[07/02/2013 15:04:28] - Written data
02 03 10 00 00 04 40 fa                         	......@�        

[07/02/2013 15:04:29] - Read data
02 03 08 00 92 00 a4 ff 04 00 00 29 56          	....�.��...)V   

[07/02/2013 15:04:29] - Written data
02 03 10 00 00 04 40 fa                         	......@�        

[07/02/2013 15:04:30] - Read data
02 03 08 00 92 00 a4 ff 04 00 00 29 56          	....�.��...)V   

[07/02/2013 15:04:30] - Written data
02 03 10 00 00 04 40 fa                         	......@�        

[07/02/2013 15:04:31] - Read data
02 03 08 00 93 00 a4 ff 04 00 00 39 96          	....�.��...9�   

[07/02/2013 15:04:31] - Written data
02 03 10 00 00 04 40 fa                         	......@�        

[07/02/2013 15:04:32] - Read data
02 03 08 00 93 00 a5 ff 04 00 00 04 56          	....�.��....V   

[07/02/2013 15:04:32] - Written data
02 03 10 00 00 04 40 fa                         	......@�        

[07/02/2013 15:04:33] - Read data
02 03 08 00 94 00 a5 ff 04 00 00 72 96          	....�.��...r�   

[07/02/2013 15:04:33] - Written data
02 03 10 00 00 04 40 fa                         	......@�        

[07/02/2013 15:04:34] - Read data
02 03 08 00 94 00 a5 ff 04 00 00 72 96          	....�.��...r�   

[07/02/2013 15:04:34] - Written data
02 03 10 00 00 04 40 fa                         	......@�        

[07/02/2013 15:04:35] - Read data
02 03 08 00 94 00 a5 ff 04 00 00 72 96          	....�.��...r�   

[07/02/2013 15:04:35] - Written data
02 03 10 00 00 04 40 fa                         	......@�        

[07/02/2013 15:04:36] - Read data
02 03 08 00 95 00 a5 ff 04 00 00 62 56          	....�.��...bV   

[07/02/2013 15:04:36] - Written data
02 03 10 00 00 04 40 fa                         	......@�        

[07/02/2013 15:04:37] - Read data
02 03 08 00 95 00 a5 ff 04 00 00 62 56          	....�.��...bV   

[07/02/2013 15:04:37] - Written data
02 03 10 00 00 04 40 fa                         	......@�        

[07/02/2013 15:04:38] - Read data
02 03 08 00 96 00 a5 ff 04 00 00 51 56          	....�.��...QV   

[07/02/2013 15:04:38] - Written data
02 03 10 00 00 04 40 fa                         	......@�        

[07/02/2013 15:04:39] - Read data
02 03 08 00 96 00 a5 ff 04 00 00 51 56          	....�.��...QV   

[07/02/2013 15:04:39] - Written data
02 03 10 00 00 04 40 fa                         	......@�        

[07/02/2013 15:04:40] - Read data
02 03 08 00 97 00 a5 ff 04 00 00 41 96          	....�.��...A�   

[07/02/2013 15:04:40] - Written data
02 03 10 00 00 04 40 fa                         	......@�        

[07/02/2013 15:04:41] - Read data
02 03 08 00 97 00 a5 ff 04 00 00 41 96          	....�.��...A�   

[07/02/2013 15:04:41] - Written data
02 03 10 00 00 04 40 fa                         	......@�        

[07/02/2013 15:04:42] - Read data
02 03 08 00 97 00 a6 ff 04 00 00 05 96          	....�.��....�   

[07/02/2013 15:04:42] - Written data
02 03 10 00 00 04 40 fa                         	......@�        

[07/02/2013 15:04:43] - Read data
02 03 08 00 97 00 a6 ff 04 00 00 05 96          	....�.��....�   

[07/02/2013 15:04:43] - Written data
02 03 10 00 00 04 40 fa                         	......@�        

[07/02/2013 15:04:44] - Read data
02 03 08 00 98 00 a6 ff 04 00 00 fa 96          	....�.��...�   

[07/02/2013 15:04:45] - Written data
02 03 10 00 00 04 40 fa                         	......@�        

[07/02/2013 15:04:45] - Read data
02 03 08 00 98 00 a6 ff 04 00 00 fa 96          	....�.��...�   

[07/02/2013 15:04:46] - Written data
02 03 10 00 00 04 40 fa                         	......@�        

[07/02/2013 15:04:46] - Read data
02 03 08 00 98 00 a6 ff 04 00 00 fa 96          	....�.��...�   

[07/02/2013 15:04:46] - Written data
02 03 10 00 00 04 40 fa                         	......@�        

[07/02/2013 15:04:47] - Read data
02 03 08 00 99 00 a6 ff 04 00 00 ea 56          	....�.��...�V   

[07/02/2013 15:04:47] - Written data
02 03 10 00 00 04 40 fa                         	......@�        

[07/02/2013 15:04:48] - Read data
02 03 08 00 99 00 a6 ff 04 00 00 ea 56          	....�.��...�V   

[07/02/2013 15:04:49] - Written data
02 03 10 00 00 04 40 fa                         	......@�        

[07/02/2013 15:04:49] - Read data
02 03 08 00 99 00 a6 ff 04 00 00 ea 56          	....�.��...�V   

[07/02/2013 15:04:50] - Written data
02 03 10 00 00 04 40 fa                         	......@�        

[07/02/2013 15:04:50] - Read data
02 03 08 00 9a 00 a6 ff 04 00 00 d9 56          	....�.��...�V   

[07/02/2013 15:04:51] - Written data
02 03 10 00 00 04 40 fa                         	......@�        

[07/02/2013 15:04:51] - Read data
02 03 08 00 9a 00 a6 ff 04 00 00 d9 56          	....�.��...�V   

[07/02/2013 15:04:52] - Written data
02 03 10 00 00 04 40 fa                         	......@�        

[07/02/2013 15:04:52] - Read data
02 03 08 00 9a 00 a7 ff 04 00 00 e4 96          	....�.��...�   

[07/02/2013 15:04:53] - Written data
02 03 10 00 00 04 40 fa                         	......@�        

[07/02/2013 15:04:53] - Read data
02 03 08 00 9a 00 a7 ff 04 00 00 e4 96          	....�.��...�   

[07/02/2013 15:04:54] - Written data
02 03 10 00 00 04 40 fa                         	......@�        

[07/02/2013 15:04:54] - Read data
02 03 08 00 9b 00 a7 ff 04 00 00 f4 56          	....�.��...�V   

[07/02/2013 15:04:55] - Written data
02 03 10 00 00 04 40 fa                         	......@�        

[07/02/2013 15:04:55] - Read data
02 03 08 00 9b 00 a7 ff 04 00 00 f4 56          	....�.��...�V   

[07/02/2013 15:04:56] - Written data
02 03 10 00 00 04 40 fa                         	......@�        

[07/02/2013 15:04:56] - Read data
02 03 08 00 9b 00 a7 ff 04 00 00 f4 56          	....�.��...�V   

[07/02/2013 15:04:57] - Written data
02 03 10 00 00 04 40 fa                         	......@�        

[07/02/2013 15:04:57] - Read data
02 03 08 00 9c 00 a7 ff 04 00 00 82 96          	....�.��...��   

[07/02/2013 15:04:58] - Written data
02 03 10 00 00 04 40 fa                         	......@�        

[07/02/2013 15:04:58] - Read data
02 03 08 00 9c 00 a7 ff 04 00 00 82 96          	....�.��...��   

[07/02/2013 15:04:59] - Written data
02 03 10 00 00 04 40 fa                         	......@�        

[07/02/2013 15:04:59] - Read data
02 03 08 00 9c 00 a7 ff 04 00 00 82 96          	....�.��...��   

[07/02/2013 15:05:00] - Written data
02 03 10 00 00 04 40 fa                         	......@�        

[07/02/2013 15:05:00] - Read data
02 03 08 00 9d 00 a7 ff 04 00 00 92 56          	....�.��...�V   

[07/02/2013 15:05:01] - Written data
02 03 10 00 00 04 40 fa                         	......@�        

[07/02/2013 15:05:01] - Read data
02 03 08 00 9d 00 a7 ff 04 00 00 92 56          	....�.��...�V   

[07/02/2013 15:05:02] - Written data
02 03 10 00 00 04 40 fa                         	......@�        

[07/02/2013 15:05:02] - Read data
02 03 08 00 9d 00 a8 ff 04 00 00 c6 57          	....�.��...�W   

[07/02/2013 15:05:03] - Written data
02 03 10 00 00 04 40 fa                         	......@�        

[07/02/2013 15:05:03] - Read data
02 03 08 00 9d 00 a8 ff 04 00 00 c6 57          	....�.��...�W   

[07/02/2013 15:05:04] - Written data
02 03 10 00 00 04 40 fa                         	......@�        

[07/02/2013 15:05:04] - Read data
02 03 08 00 9e 00 a8 ff 04 00 00 f5 57          	....�.��...�W   

[07/02/2013 15:05:05] - Written data
02 03 10 00 00 04 40 fa                         	......@�        

[07/02/2013 15:05:05] - Read data
02 03 08 00 9f 00 a8 ff 04 00 00 e5 97          	....�.��...�   

[07/02/2013 15:05:06] - Written data
02 03 10 00 00 04 40 fa                         	......@�        

[07/02/2013 15:05:06] - Read data
02 03 08 00 9f 00 a8 ff 04 00 00 e5 97          	....�.��...�   

[07/02/2013 15:05:07] - Written data
02 03 10 00 00 04 40 fa                         	......@�        

[07/02/2013 15:05:07] - Read data
02 03 08 00 9f 00 a8 ff 04 00 00 e5 97          	....�.��...�   

[07/02/2013 15:05:08] - Written data
02 03 10 00 00 04 40 fa                         	......@�        

[07/02/2013 15:05:08] - Read data
02 03 08 00 a0 00 a8 ff 04 00 00 2a 94          	....�.��...*�   

[07/02/2013 15:05:09] - Written data
02 03 10 00 00 04 40 fa                         	......@�        

[07/02/2013 15:05:09] - Read data
02 03 08 00 a0 00 a8 ff 04 00 00 2a 94          	....�.��...*�   

[07/02/2013 15:05:10] - Written data
02 03 10 00 00 04 40 fa                         	......@�        

[07/02/2013 15:05:10] - Read data
02 03 08 00 a0 00 a8 ff 04 00 00 2a 94          	....�.��...*�   

[07/02/2013 15:05:11] - Written data
02 03 10 00 00 04 40 fa                         	......@�        

[07/02/2013 15:05:11] - Read data
02 03 08 00 a0 00 a8 ff 04 00 00 2a 94          	....�.��...*�   

[07/02/2013 15:05:12] - Written data
02 03 10 00 00 04 40 fa                         	......@�        

[07/02/2013 15:05:12] - Read data
02 03 08 00 a0 00 a9 ff 04 00 00 17 54          	....�.��....T   

[07/02/2013 15:05:13] - Written data
02 03 10 00 00 04 40 fa                         	......@�        

[07/02/2013 15:05:13] - Read data
02 03 08 00 a1 00 a9 ff 04 00 00 07 94          	....�.��....�   

[07/02/2013 15:05:14] - Written data
02 03 10 00 00 04 40 fa                         	......@�        

[07/02/2013 15:05:14] - Read data
02 03 08 00 a2 00 a9 ff 04 00 00 34 94          	....�.��...4�   

[07/02/2013 15:05:15] - Written data
02 03 10 00 00 04 40 fa                         	......@�        

[07/02/2013 15:05:15] - Read data
02 03 08 00 a2 00 a9 ff 04 00 00 34 94          	....�.��...4�   

[07/02/2013 15:05:16] - Written data
02 03 10 00 00 04 40 fa                         	......@�        

[07/02/2013 15:05:16] - Read data
02 03 08 00 a2 00 a9 ff 04 00 00 34 94          	....�.��...4�   

[07/02/2013 15:05:17] - Written data
02 03 10 00 00 04 40 fa                         	......@�        

[07/02/2013 15:05:17] - Read data
02 03 08 00 a2 00 a9 ff 04 00 00 34 94          	....�.��...4�   

[07/02/2013 15:05:18] - Written data
02 03 10 00 00 04 40 fa                         	......@�        

[07/02/2013 15:05:18] - Read data
02 03 08 00 a2 00 a9 ff 04 00 00 34 94          	....�.��...4�   

[07/02/2013 15:05:19] - Written data
02 03 10 00 00 04 40 fa                         	......@�        

[07/02/2013 15:05:20] - Read data
02 03 08 00 a3 00 a9 ff 04 00 00 24 54          	....�.��...$T   

[07/02/2013 15:05:20] - Written data
02 03 10 00 00 04 40 fa                         	......@�        

[07/02/2013 15:05:20] - Read data
02 03 08 00 a3 00 a9 ff 04 00 00 24 54          	....�.��...$T   

[07/02/2013 15:05:21] - Written data
02 03 10 00 00 04 40 fa                         	......@�        

[07/02/2013 15:05:21] - Read data
02 03 08 00 a3 00 a9 ff 04 00 00 24 54          	....�.��...$T   

[07/02/2013 15:05:22] - Written data
02 03 10 00 00 04 40 fa                         	......@�        

[07/02/2013 15:05:23] - Read data
02 03 08 00 a3 00 aa ff 04 00 00 60 54          	....�.��...`T   

[07/02/2013 15:05:23] - Written data
02 03 10 00 00 04 40 fa                         	......@�        

[07/02/2013 15:05:24] - Read data
02 03 08 00 a4 00 aa ff 04 00 00 16 94          	....�.��....�   

[07/02/2013 15:05:24] - Written data
02 03 10 00 00 04 40 fa                         	......@�        

[07/02/2013 15:05:25] - Read data
02 03 08 00 a4 00 aa ff 04 00 00 16 94          	....�.��....�   

[07/02/2013 15:05:25] - Written data
02 03 10 00 00 04 40 fa                         	......@�        

[07/02/2013 15:05:26] - Read data
02 03 08 00 a4 00 aa ff 04 00 00 16 94          	....�.��....�   

[07/02/2013 15:05:26] - Written data
02 03 10 00 00 04 40 fa                         	......@�        

[07/02/2013 15:05:27] - Read data
02 03 08 00 a4 00 aa ff 04 00 00 16 94          	....�.��....�   

[07/02/2013 15:05:27] - Written data
02 03 10 00 00 04 40 fa                         	......@�        

[07/02/2013 15:05:28] - Read data
02 03 08 00 a5 00 aa ff 04 00 00 06 54          	....�.��....T   

[07/02/2013 15:05:28] - Written data
02 03 10 00 00 04 40 fa                         	......@�        

[07/02/2013 15:05:29] - Read data
02 03 08 00 a5 00 aa ff 04 00 00 06 54          	....�.��....T   

[07/02/2013 15:05:29] - Written data
02 03 10 00 00 04 40 fa                         	......@�        

[07/02/2013 15:05:30] - Read data
02 03 08 00 a5 00 aa ff 04 00 00 06 54          	....�.��....T   

[07/02/2013 15:05:30] - Written data
02 03 10 00 00 04 40 fa                         	......@�        

[07/02/2013 15:05:31] - Read data
02 03 08 00 a6 00 aa ff 04 00 00 35 54          	....�.��...5T   

[07/02/2013 15:05:31] - Written data
02 03 10 00 00 04 40 fa                         	......@�        

[07/02/2013 15:05:32] - Read data
02 03 08 00 a6 00 ab ff 04 00 00 08 94          	....�.��....�   

[07/02/2013 15:05:32] - Written data
02 03 10 00 00 04 40 fa                         	......@�        

[07/02/2013 15:05:33] - Read data
02 03 08 00 a6 00 ab ff 04 00 00 08 94          	....�.��....�   

[07/02/2013 15:05:33] - Written data
02 03 10 00 00 04 40 fa                         	......@�        

[07/02/2013 15:05:34] - Read data
02 03 08 00 a6 00 ab ff 04 00 00 08 94          	....�.��....�   

[07/02/2013 15:05:34] - Written data
02 03 10 00 00 04 40 fa                         	......@�        

[07/02/2013 15:05:35] - Read data
02 03 08 00 a6 00 ac ff 04 00 00 bd 54          	....�.��...�T   

[07/02/2013 15:05:35] - Written data
02 03 10 00 00 04 40 fa                         	......@�        

[07/02/2013 15:05:36] - Read data
02 03 08 00 a7 00 ad ff 04 00 00 90 54          	....�.��...�T   

[07/02/2013 15:05:36] - Written data
02 03 10 00 00 04 40 fa                         	......@�        

[07/02/2013 15:05:37] - Read data
02 03 08 00 a7 00 ae ff 04 00 00 d4 54          	....�.��...�T   

[07/02/2013 15:05:37] - Written data
02 03 10 00 00 04 40 fa                         	......@�        

[07/02/2013 15:05:38] - Read data
02 03 08 00 a7 00 ae ff 04 00 00 d4 54          	....�.��...�T   

[07/02/2013 15:05:38] - Written data
02 03 10 00 00 04 40 fa                         	......@�        

[07/02/2013 15:05:39] - Read data
02 03 08 00 a8 00 ae ff 04 00 00 2b 54          	....�.��...+T   

[07/02/2013 15:05:39] - Written data
02 03 10 00 00 04 40 fa                         	......@�        

[07/02/2013 15:05:40] - Read data
02 03 08 00 a8 00 af ff 04 00 00 16 94          	....�.��....�   

[07/02/2013 15:05:40] - Written data
02 03 10 00 00 04 40 fa                         	......@�        

[07/02/2013 15:05:41] - Read data
02 03 08 00 a9 00 af ff 04 00 00 06 54          	....�.��....T   

[07/02/2013 15:05:41] - Written data
02 03 10 00 00 04 40 fa                         	......@�        

[07/02/2013 15:05:42] - Read data
02 03 08 00 a9 00 af ff 04 00 00 06 54          	....�.��....T   

[07/02/2013 15:05:42] - Written data
02 03 10 00 00 04 40 fa                         	......@�        

[07/02/2013 15:05:43] - Read data
02 03 08 00 a9 00 af ff 04 00 00 06 54          	....�.��....T   

[07/02/2013 15:05:43] - Written data
02 03 10 00 00 04 40 fa                         	......@�        

[07/02/2013 15:05:44] - Read data
02 03 08 00 aa 00 af ff 04 00 00 35 54          	....�.��...5T   

[07/02/2013 15:05:44] - Written data
02 03 10 00 00 04 40 fa                         	......@�        

[07/02/2013 15:05:45] - Read data
02 03 08 00 ab 00 be ff 04 00 00 d9 97          	....�.��...ٗ   

[07/02/2013 15:05:45] - Written data
02 03 10 00 00 04 40 fa                         	......@�        

[07/02/2013 15:05:46] - Read data
02 03 08 00 ac 00 be ff 04 00 00 af 57          	....�.��...�W   

[07/02/2013 15:05:46] - Written data
02 03 10 00 00 04 40 fa                         	......@�        

[07/02/2013 15:05:47] - Read data
02 03 08 00 ac 00 be ff 04 00 00 af 57          	....�.��...�W   

[07/02/2013 15:05:47] - Written data
02 03 10 00 00 04 40 fa                         	......@�        

[07/02/2013 15:05:48] - Read data
02 03 08 00 ad 00 be ff 04 00 00 bf 97          	....�.��...��   

[07/02/2013 15:05:48] - Written data
02 03 10 00 00 04 40 fa                         	......@�        

[07/02/2013 15:05:49] - Read data
02 03 08 00 ad 00 be ff 04 00 00 bf 97          	....�.��...��   

[07/02/2013 15:05:49] - Written data
02 03 10 00 00 04 40 fa                         	......@�        

[07/02/2013 15:05:50] - Read data
02 03 08 00 ae 00 be ff 04 00 00 8c 97          	....�.��...��   

[07/02/2013 15:05:50] - Written data
02 03 10 00 00 04 40 fa                         	......@�        

[07/02/2013 15:05:51] - Read data
02 03 08 00 af 00 be ff 04 00 00 9c 57          	....�.��...�W   

[07/02/2013 15:05:51] - Written data
02 03 10 00 00 04 40 fa                         	......@�        

[07/02/2013 15:05:52] - Read data
02 03 08 00 b0 00 be ff 04 00 00 72 96          	....�.��...r�   

[07/02/2013 15:05:52] - Written data
02 03 10 00 00 04 40 fa                         	......@�        

[07/02/2013 15:05:53] - Read data
02 03 08 00 b2 00 be ff 04 00 00 51 56          	....�.��...QV   

[07/02/2013 15:05:53] - Written data
02 03 10 00 00 04 40 fa                         	......@�        

[07/02/2013 15:05:54] - Read data
02 03 08 00 b3 00 be ff 04 00 00 41 96          	....�.��...A�   

[07/02/2013 15:05:54] - Written data
02 03 10 00 00 04 40 fa                         	......@�        

[07/02/2013 15:05:55] - Read data
02 03 08 00 b4 00 be ff 04 00 00 37 56          	....�.��...7V   

[07/02/2013 15:05:55] - Written data
02 03 10 00 00 04 40 fa                         	......@�        

[07/02/2013 15:05:56] - Read data
02 03 08 00 b6 00 be ff 04 00 00 14 96          	....�.��....�   

[07/02/2013 15:05:56] - Written data
02 03 10 00 00 04 40 fa                         	......@�        

[07/02/2013 15:05:57] - Read data
02 03 08 00 b7 00 be ff 04 00 00 04 56          	....�.��....V   

[07/02/2013 15:05:58] - Written data
02 03 10 00 00 04 40 fa                         	......@�        

[07/02/2013 15:05:58] - Read data
02 03 08 00 b8 00 be ff 04 00 00 fb 56          	....�.��...�V   

[07/02/2013 15:05:59] - Written data
02 03 10 00 00 04 40 fa                         	......@�        

[07/02/2013 15:05:59] - Read data
02 03 08 00 ba 00 be ff 04 00 00 d8 96          	....�.��...ؖ   

[07/02/2013 15:06:00] - Written data
02 03 10 00 00 04 40 fa                         	......@�        

[07/02/2013 15:06:00] - Read data
02 03 08 00 bb 00 be ff 04 00 00 c8 56          	....�.��...�V   

[07/02/2013 15:06:01] - Written data
02 03 10 00 00 04 40 fa                         	......@�        

[07/02/2013 15:06:01] - Read data
02 03 08 00 bb 00 be ff 04 00 00 c8 56          	....�.��...�V   

[07/02/2013 15:06:02] - Written data
02 03 10 00 00 04 40 fa                         	......@�        

[07/02/2013 15:06:02] - Read data
02 03 08 00 bc 00 be ff 04 00 00 be 96          	....�.��...��   

[07/02/2013 15:06:03] - Written data
02 03 10 00 00 04 40 fa                         	......@�        

[07/02/2013 15:06:03] - Read data
02 03 08 00 bc 00 be ff 04 00 00 be 96          	....�.��...��   

[07/02/2013 15:06:04] - Written data
02 03 10 00 00 04 40 fa                         	......@�        

[07/02/2013 15:06:04] - Read data
02 03 08 00 bc 00 be ff 04 00 00 be 96          	....�.��...��   

[07/02/2013 15:06:05] - Written data
02 03 10 00 00 04 40 fa                         	......@�        

[07/02/2013 15:06:05] - Read data
02 03 08 00 bc 00 c8 ff 04 00 00 77 5d          	....�.��...w]   

[07/02/2013 15:06:06] - Written data
02 03 10 00 00 04 40 fa                         	......@�        

[07/02/2013 15:06:06] - Read data
02 03 08 00 bc 00 c8 ff 04 00 00 77 5d          	....�.��...w]   

[07/02/2013 15:06:07] - Written data
02 03 10 00 00 04 40 fa                         	......@�        

[07/02/2013 15:06:07] - Read data
02 03 08 00 bc 00 c8 ff 04 00 00 77 5d          	....�.��...w]   

[07/02/2013 15:06:08] - Written data
02 03 10 00 00 04 40 fa                         	......@�        

[07/02/2013 15:06:08] - Read data
02 03 08 00 bc 00 c8 ff 04 00 00 77 5d          	....�.��...w]   

[07/02/2013 15:06:09] - Written data
02 03 10 00 00 04 40 fa                         	......@�        

[07/02/2013 15:06:09] - Read data
02 03 08 00 bc 00 c8 ff 04 00 00 77 5d          	....�.��...w]   

[07/02/2013 15:06:10] - Written data
02 03 10 00 00 04 40 fa                         	......@�        

[07/02/2013 15:06:10] - Read data
02 03 08 00 bc 00 d2 ff 04 00 00 2e 9f          	....�.��....�   

[07/02/2013 15:06:11] - Written data
02 03 10 00 00 04 40 fa                         	......@�        

[07/02/2013 15:06:11] - Read data
02 03 08 00 bc 00 d2 ff 04 00 00 2e 9f          	....�.��....�   

[07/02/2013 15:06:12] - Written data
02 03 10 00 00 04 40 fa                         	......@�        

[07/02/2013 15:06:12] - Read data
02 03 08 00 bd 00 d2 ff 04 00 00 3e 5f          	....�.��...>_   

[07/02/2013 15:06:13] - Written data
02 03 10 00 00 04 40 fa                         	......@�        

[07/02/2013 15:06:13] - Read data
02 03 08 00 be 00 d2 ff 04 00 00 0d 5f          	....�.��...._   

[07/02/2013 15:06:14] - Written data
02 03 10 00 00 04 40 fa                         	......@�        

[07/02/2013 15:06:14] - Read data
02 03 08 00 bf 00 d2 ff 04 00 00 1d 9f          	....�.��....�   

[07/02/2013 15:06:15] - Written data
02 03 10 00 00 04 40 fa                         	......@�        

[07/02/2013 15:06:15] - Read data
02 03 08 00 c1 00 d2 ff 04 00 00 83 98          	....�.��...��   

[07/02/2013 15:06:16] - Written data
02 03 10 00 00 04 40 fa                         	......@�        

[07/02/2013 15:06:16] - Read data
02 03 08 00 c1 00 d2 ff 04 00 00 83 98          	....�.��...��   

[07/02/2013 15:06:17] - Written data
02 03 10 00 00 04 40 fa                         	......@�        

[07/02/2013 15:06:17] - Read data
02 03 08 00 c2 00 d2 ff 04 00 00 b0 98          	....�.��...��   

[07/02/2013 15:06:18] - Written data
02 03 10 00 00 04 40 fa                         	......@�        

[07/02/2013 15:06:18] - Read data
02 03 08 00 c3 00 d2 ff 04 00 00 a0 58          	....�.��...�X   

[07/02/2013 15:06:19] - Written data
02 03 10 00 00 04 40 fa                         	......@�        

[07/02/2013 15:06:19] - Read data
02 03 08 00 c5 00 d2 ff 04 00 00 c6 58          	....�.��...�X   

[07/02/2013 15:06:20] - Written data
02 03 10 00 00 04 40 fa                         	......@�        

[07/02/2013 15:06:20] - Read data
02 03 08 00 c6 00 dc ff 04 00 00 9c 99          	....�.��...��   

[07/02/2013 15:06:21] - Written data
02 03 10 00 00 04 40 fa                         	......@�        

[07/02/2013 15:06:21] - Read data
02 03 08 00 c7 00 dc ff 04 00 00 8c 59          	....�.��...�Y   

[07/02/2013 15:06:22] - Written data
02 03 10 00 00 04 40 fa                         	......@�        

[07/02/2013 15:06:22] - Read data
02 03 08 00 c9 00 dc ff 04 00 00 63 99          	....�.��...c�   

[07/02/2013 15:06:23] - Written data
02 03 10 00 00 04 40 fa                         	......@�        

[07/02/2013 15:06:23] - Read data
02 03 08 00 ca 00 dc ff 04 00 00 50 99          	....�.��...P�   

[07/02/2013 15:06:24] - Written data
02 03 10 00 00 04 40 fa                         	......@�        

[07/02/2013 15:06:24] - Read data
02 03 08 00 cb 00 dc ff 04 00 00 40 59          	....�.��...@Y   

[07/02/2013 15:06:25] - Written data
02 03 10 00 00 04 40 fa                         	......@�        

[07/02/2013 15:06:25] - Read data
02 03 08 00 cd 00 dc ff 04 00 00 26 59          	....�.��...&Y   

[07/02/2013 15:06:26] - Written data
02 03 10 00 00 04 40 fa                         	......@�        

[07/02/2013 15:06:26] - Read data
02 03 08 00 ce 00 dc ff 04 00 00 15 59          	....�.��....Y   

[07/02/2013 15:06:27] - Written data
02 03 10 00 00 04 40 fa                         	......@�        

[07/02/2013 15:06:27] - Read data
02 03 08 00 cf 00 dc ff 04 00 00 05 99          	....�.��....�   

[07/02/2013 15:06:28] - Written data
02 03 10 00 00 04 40 fa                         	......@�        

[07/02/2013 15:06:28] - Read data
02 03 08 00 d1 00 dc ff 04 00 00 fb 98          	....�.��...�   

[07/02/2013 15:06:29] - Written data
02 03 10 00 00 04 40 fa                         	......@�        

[07/02/2013 15:06:29] - Read data
02 03 08 00 d2 00 dc ff 04 00 00 c8 98          	....�.��...Ș   

[07/02/2013 15:06:30] - Written data
02 03 10 00 00 04 40 fa                         	......@�        

[07/02/2013 15:06:30] - Read data
02 03 08 00 d2 00 dc ff 04 00 00 c8 98          	....�.��...Ș   

[07/02/2013 15:06:31] - Written data
02 03 10 00 00 04 40 fa                         	......@�        

[07/02/2013 15:06:31] - Read data
02 03 08 00 d3 00 dc ff 04 00 00 d8 58          	....�.��...�X   

[07/02/2013 15:06:32] - Written data
02 03 10 00 00 04 40 fa                         	......@�        

[07/02/2013 15:06:33] - Read data
02 03 08 00 d5 00 dc ff 04 00 00 be 58          	....�.��...�X   

[07/02/2013 15:06:33] - Written data
02 03 10 00 00 04 40 fa                         	......@�        

[07/02/2013 15:06:34] - Read data
02 03 08 00 d5 00 dc ff 04 00 00 be 58          	....�.��...�X   

[07/02/2013 15:06:34] - Written data
02 03 10 00 00 04 40 fa                         	......@�        

[07/02/2013 15:06:34] - Read data
02 03 08 00 d6 00 dc ff 04 00 00 8d 58          	....�.��...�X   

[07/02/2013 15:06:35] - Written data
02 03 10 00 00 04 40 fa                         	......@�        

[07/02/2013 15:06:36] - Read data
02 03 08 00 d6 00 e6 ff 04 00 00 55 5d          	....�.��...U]   

[07/02/2013 15:06:36] - Written data
02 03 10 00 00 04 40 fa                         	......@�        

[07/02/2013 15:06:37] - Read data
02 03 08 00 d6 00 e6 ff 04 00 00 55 5d          	....�.��...U]   

[07/02/2013 15:06:37] - Written data
02 03 10 00 00 04 40 fa                         	......@�        

[07/02/2013 15:06:38] - Read data
02 03 08 00 d6 00 e6 ff 04 00 00 55 5d          	....�.��...U]   

[07/02/2013 15:06:38] - Written data
02 03 10 00 00 04 40 fa                         	......@�        

[07/02/2013 15:06:39] - Read data
02 03 08 00 d6 00 e6 ff 04 00 00 55 5d          	....�.��...U]   

[07/02/2013 15:06:39] - Written data
02 03 10 00 00 04 40 fa                         	......@�        

[07/02/2013 15:06:40] - Read data
02 03 08 00 d6 00 e6 ff 04 00 00 55 5d          	....�.��...U]   

[07/02/2013 15:06:40] - Written data
02 03 10 00 00 04 40 fa                         	......@�        

[07/02/2013 15:06:41] - Read data
02 03 08 00 d7 00 e6 ff 04 00 00 45 9d          	....�.��...E�   

[07/02/2013 15:06:41] - Written data
02 03 10 00 00 04 40 fa                         	......@�        

[07/02/2013 15:06:42] - Read data
02 03 08 00 d8 00 e6 ff 04 00 00 ba 9d          	....�.��...��   

[07/02/2013 15:06:42] - Written data
02 03 10 00 00 04 40 fa                         	......@�        

[07/02/2013 15:06:43] - Read data
02 03 08 00 d9 00 e6 ff 04 00 00 aa 5d          	....�.��...�]   

[07/02/2013 15:06:43] - Written data
02 03 10 00 00 04 40 fa                         	......@�        

[07/02/2013 15:06:44] - Read data
02 03 08 00 da 00 e6 ff 04 00 00 99 5d          	....�.��...�]   

[07/02/2013 15:06:44] - Written data
02 03 10 00 00 04 40 fa                         	......@�        

[07/02/2013 15:06:45] - Read data
02 03 08 00 db 00 e6 ff 04 00 00 89 9d          	....�.��...��   

[07/02/2013 15:06:45] - Written data
02 03 10 00 00 04 40 fa                         	......@�        

[07/02/2013 15:06:46] - Read data
02 03 08 00 dc 00 e6 ff 04 00 00 ff 5d          	....�.��...�]   

[07/02/2013 15:06:46] - Written data
02 03 10 00 00 04 40 fa                         	......@�        

[07/02/2013 15:06:47] - Read data
02 03 08 00 dd 00 e6 ff 04 00 00 ef 9d          	....�.��...�   

[07/02/2013 15:06:47] - Written data
02 03 10 00 00 04 40 fa                         	......@�        

[07/02/2013 15:06:48] - Read data
02 03 08 00 dd 00 e6 ff 04 00 00 ef 9d          	....�.��...�   

[07/02/2013 15:06:48] - Written data
02 03 10 00 00 04 40 fa                         	......@�        

[07/02/2013 15:06:49] - Read data
02 03 08 00 df 00 e6 ff 04 00 00 cc 5d          	....�.��...�]   

[07/02/2013 15:06:49] - Written data
02 03 10 00 00 04 40 fa                         	......@�        

[07/02/2013 15:06:50] - Read data
02 03 08 00 df 00 e6 ff 04 00 00 cc 5d          	....�.��...�]   

[07/02/2013 15:06:50] - Written data
02 03 10 00 00 04 40 fa                         	......@�        

[07/02/2013 15:06:51] - Read data
02 03 08 00 e0 00 eb ff 04 00 00 2e 9f          	....�.��....�   

[07/02/2013 15:06:51] - Written data
02 03 10 00 00 04 40 fa                         	......@�        

[07/02/2013 15:06:52] - Read data
02 03 08 00 e1 00 eb ff 04 00 00 3e 5f          	....�.��...>_   

[07/02/2013 15:06:52] - Written data
02 03 10 00 00 04 40 fa                         	......@�        

[07/02/2013 15:06:53] - Read data
02 03 08 00 e1 00 eb ff 04 00 00 3e 5f          	....�.��...>_   

[07/02/2013 15:06:53] - Written data
02 03 10 00 00 04 40 fa                         	......@�        

[07/02/2013 15:06:54] - Read data
02 03 08 00 e1 00 eb ff 04 00 00 3e 5f          	....�.��...>_   

[07/02/2013 15:06:54] - Written data
02 03 10 00 00 04 40 fa                         	......@�        

[07/02/2013 15:06:55] - Read data
02 03 08 00 e2 00 eb ff 04 00 00 0d 5f          	....�.��...._   

[07/02/2013 15:06:55] - Written data
02 03 10 00 00 04 40 fa                         	......@�        

[07/02/2013 15:06:56] - Read data
02 03 08 00 e2 00 eb ff 04 00 00 0d 5f          	....�.��...._   

[07/02/2013 15:06:56] - Written data
02 03 10 00 00 04 40 fa                         	......@�        

[07/02/2013 15:06:57] - Read data
02 03 08 00 e2 00 eb ff 04 00 00 0d 5f          	....�.��...._   

[07/02/2013 15:06:57] - Written data
02 03 10 00 00 04 40 fa                         	......@�        

[07/02/2013 15:06:58] - Read data
02 03 08 00 e4 00 eb ff 04 00 00 6b 5f          	....�.��...k_   

[07/02/2013 15:06:58] - Written data
02 03 10 00 00 04 40 fa                         	......@�        

[07/02/2013 15:06:59] - Read data
02 03 08 00 e4 00 eb ff 04 00 00 6b 5f          	....�.��...k_   

[07/02/2013 15:06:59] - Written data
02 03 10 00 00 04 40 fa                         	......@�        

[07/02/2013 15:07:00] - Read data
02 03 08 00 e5 00 eb ff 04 00 00 7b 9f          	....�.��...{�   

[07/02/2013 15:07:00] - Written data
02 03 10 00 00 04 40 fa                         	......@�        

[07/02/2013 15:07:01] - Read data
02 03 08 00 e5 00 eb ff 04 00 00 7b 9f          	....�.��...{�   

[07/02/2013 15:07:01] - Written data
02 03 10 00 00 04 40 fa                         	......@�        

[07/02/2013 15:07:02] - Read data
02 03 08 00 e6 00 eb ff 04 00 00 48 9f          	....�.��...H�   

[07/02/2013 15:07:02] - Written data
02 03 10 00 00 04 40 fa                         	......@�        

[07/02/2013 15:07:03] - Read data
02 03 08 00 e6 00 eb ff 04 00 00 48 9f          	....�.��...H�   

[07/02/2013 15:07:03] - Written data
02 03 10 00 00 04 40 fa                         	......@�        

[07/02/2013 15:07:04] - Read data
02 03 08 00 e6 00 eb ff 04 00 00 48 9f          	....�.��...H�   

[07/02/2013 15:07:04] - Written data
02 03 10 00 00 04 40 fa                         	......@�        

[07/02/2013 15:07:05] - Read data
02 03 08 00 e6 00 eb ff 04 00 00 48 9f          	....�.��...H�   

[07/02/2013 15:07:05] - Written data
02 03 10 00 00 04 40 fa                         	......@�        

[07/02/2013 15:07:06] - Read data
02 03 08 00 e7 00 eb ff 04 00 00 58 5f          	....�.��...X_   

[07/02/2013 15:07:06] - Written data
02 03 10 00 00 04 40 fa                         	......@�        

[07/02/2013 15:07:07] - Read data
02 03 08 00 e7 00 eb ff 04 00 00 58 5f          	....�.��...X_   

[07/02/2013 15:07:08] - Written data
02 03 10 00 00 04 40 fa                         	......@�        

[07/02/2013 15:07:08] - Read data
02 03 08 00 e7 00 eb ff 04 00 00 58 5f          	....�.��...X_   

[07/02/2013 15:07:09] - Written data
02 03 10 00 00 04 40 fa                         	......@�        

[07/02/2013 15:07:09] - Read data
02 03 08 00 e7 00 eb ff 04 00 00 58 5f          	....�.��...X_   

[07/02/2013 15:07:09] - Written data
02 03 10 00 00 04 40 fa                         	......@�        

[07/02/2013 15:07:10] - Read data
02 03 08 00 e7 00 eb ff 04 00 00 58 5f          	....�.��...X_   

[07/02/2013 15:07:11] - Written data
02 03 10 00 00 04 40 fa                         	......@�        

[07/02/2013 15:07:11] - Read data
02 03 08 00 e7 00 f0 ff 04 00 00 3c 5d          	....�.��...<]   

[07/02/2013 15:07:12] - Written data
02 03 10 00 00 04 40 fa                         	......@�        

[07/02/2013 15:07:12] - Read data
02 03 08 00 e7 00 f0 ff 04 00 00 3c 5d          	....�.��...<]   

[07/02/2013 15:07:13] - Written data
02 03 10 00 00 04 40 fa                         	......@�        

[07/02/2013 15:07:13] - Read data
02 03 08 00 e8 00 f0 ff 04 00 00 c3 5d          	....�.��...�]   

[07/02/2013 15:07:14] - Written data
02 03 10 00 00 04 40 fa                         	......@�        

[07/02/2013 15:07:14] - Read data
02 03 08 00 e8 00 f0 ff 04 00 00 c3 5d          	....�.��...�]   

[07/02/2013 15:07:15] - Written data
02 03 10 00 00 04 40 fa                         	......@�        

[07/02/2013 15:07:15] - Read data
02 03 08 00 e8 00 f0 ff 04 00 00 c3 5d          	....�.��...�]   

[07/02/2013 15:07:16] - Written data
02 03 10 00 00 04 40 fa                         	......@�        

[07/02/2013 15:07:16] - Read data
02 03 08 00 e9 00 f0 ff 04 00 00 d3 9d          	....�.��...ӝ   

[07/02/2013 15:07:17] - Written data
02 03 10 00 00 04 40 fa                         	......@�        

[07/02/2013 15:07:17] - Read data
02 03 08 00 e9 00 f0 ff 04 00 00 d3 9d          	....�.��...ӝ   

[07/02/2013 15:07:18] - Written data
02 03 10 00 00 04 40 fa                         	......@�        

[07/02/2013 15:07:18] - Read data
02 03 08 00 ea 00 f0 ff 04 00 00 e0 9d          	....�.��...��   

[07/02/2013 15:07:19] - Written data
02 03 10 00 00 04 40 fa                         	......@�        

[07/02/2013 15:07:19] - Read data
02 03 08 00 eb 00 f0 ff 04 00 00 f0 5d          	....�.��...�]   

[07/02/2013 15:07:20] - Written data
02 03 10 00 00 04 40 fa                         	......@�        

[07/02/2013 15:07:20] - Read data
02 03 08 00 ec 00 f0 ff 04 00 00 86 9d          	....�.��...��   

[07/02/2013 15:07:21] - Written data
02 03 10 00 00 04 40 fa                         	......@�        

[07/02/2013 15:07:21] - Read data
02 03 08 00 ed 00 f0 ff 04 00 00 96 5d          	....�.��...�]   

[07/02/2013 15:07:22] - Written data
02 03 10 00 00 04 40 fa                         	......@�        

[07/02/2013 15:07:22] - Read data
02 03 08 00 ed 00 f0 ff 04 00 00 96 5d          	....�.��...�]   

[07/02/2013 15:07:23] - Written data
02 03 10 00 00 04 40 fa                         	......@�        

[07/02/2013 15:07:23] - Read data
02 03 08 00 ee 00 f0 ff 04 00 00 a5 5d          	....�.��...�]   

[07/02/2013 15:07:24] - Written data
02 03 10 00 00 04 40 fa                         	......@�        

[07/02/2013 15:07:24] - Read data
02 03 08 00 ef 00 f0 ff 04 00 00 b5 9d          	....�.��...��   

[07/02/2013 15:07:25] - Written data
02 03 10 00 00 04 40 fa                         	......@�        

[07/02/2013 15:07:25] - Read data
02 03 08 00 ef 00 f0 ff 04 00 00 b5 9d          	....�.��...��   

[07/02/2013 15:07:26] - Written data
02 03 10 00 00 04 40 fa                         	......@�        

[07/02/2013 15:07:26] - Read data
02 03 08 00 ef 00 f0 ff 04 00 00 b5 9d          	....�.��...��   

[07/02/2013 15:07:27] - Written data
02 03 10 00 00 04 40 fa                         	......@�        

[07/02/2013 15:07:27] - Read data
02 03 08 00 ef 00 f0 ff 04 00 00 b5 9d          	....�.��...��   

[07/02/2013 15:07:28] - Written data
02 03 10 00 00 04 40 fa                         	......@�        

[07/02/2013 15:07:28] - Read data
02 03 08 00 ef 00 f0 ff 04 00 00 b5 9d          	....�.��...��   

[07/02/2013 15:07:29] - Written data
02 03 10 00 00 04 40 fa                         	......@�        

[07/02/2013 15:07:29] - Read data
02 03 08 00 ef 00 f0 ff 04 00 00 b5 9d          	....�.��...��   

[07/02/2013 15:07:30] - Written data
02 03 10 00 00 04 40 fa                         	......@�        

[07/02/2013 15:07:30] - Read data
02 03 08 00 ef 00 f0 ff 04 00 00 b5 9d          	....�.��...��   

[07/02/2013 15:07:31] - Written data
02 03 10 00 00 04 40 fa                         	......@�        

[07/02/2013 15:07:31] - Read data
02 03 08 00 ef 00 f0 ff 04 00 00 b5 9d          	....�.��...��   

[07/02/2013 15:07:32] - Written data
02 03 10 00 00 04 40 fa                         	......@�        

[07/02/2013 15:07:32] - Read data
02 03 08 00 ef 00 f0 ff 04 00 00 b5 9d          	....�.��...��   

[07/02/2013 15:07:33] - Written data
02 03 10 00 00 04 40 fa                         	......@�        

[07/02/2013 15:07:33] - Read data
02 03 08 00 ef 00 f0 ff 04 00 00 b5 9d          	....�.��...��   

[07/02/2013 15:07:34] - Written data
02 03 10 00 00 04 40 fa                         	......@�        

[07/02/2013 15:07:34] - Read data
02 03 08 00 ef 00 f0 ff 04 00 00 b5 9d          	....�.��...��   

[07/02/2013 15:07:35] - Written data
02 03 10 00 00 04 40 fa                         	......@�        

[07/02/2013 15:07:35] - Read data
02 03 08 00 ef 00 f0 ff 04 00 00 b5 9d          	....�.��...��   

[07/02/2013 15:07:36] - Written data
02 03 10 00 00 04 40 fa                         	......@�        

[07/02/2013 15:07:36] - Read data
02 03 08 00 ef 00 f2 ff 04 00 00 cc 5d          	....�.��...�]   

[07/02/2013 15:07:37] - Written data
02 03 10 00 00 04 40 fa                         	......@�        

[07/02/2013 15:07:37] - Read data
02 03 08 00 ef 00 f2 ff 04 00 00 cc 5d          	....�.��...�]   

[07/02/2013 15:07:38] - Written data
02 03 10 00 00 04 40 fa                         	......@�        

[07/02/2013 15:07:38] - Read data
02 03 08 00 ef 00 f2 ff 04 00 00 cc 5d          	....�.��...�]   

[07/02/2013 15:07:39] - Written data
02 03 10 00 00 04 40 fa                         	......@�        

[07/02/2013 15:07:39] - Read data
02 03 08 00 ef 00 f2 ff 04 00 00 cc 5d          	....�.��...�]   

[07/02/2013 15:07:40] - Written data
02 03 10 00 00 04 40 fa                         	......@�        

[07/02/2013 15:07:40] - Read data
02 03 08 00 ef 00 f2 ff 04 00 00 cc 5d          	....�.��...�]   

[07/02/2013 15:07:41] - Written data
02 03 10 00 00 04 40 fa                         	......@�        

[07/02/2013 15:07:42] - Read data
02 03 08 00 ef 00 f2 ff 04 00 00 cc 5d          	....�.��...�]   

[07/02/2013 15:07:42] - Written data
02 03 10 00 00 04 40 fa                         	......@�        

[07/02/2013 15:07:43] - Read data
02 03 08 00 ef 00 f2 ff 04 00 00 cc 5d          	....�.��...�]   

[07/02/2013 15:07:43] - Written data
02 03 10 00 00 04 40 fa                         	......@�        

[07/02/2013 15:07:43] - Read data
02 03 08 00 ef 00 f2 ff 04 00 00 cc 5d          	....�.��...�]   

[07/02/2013 15:07:44] - Written data
02 03 10 00 00 04 40 fa                         	......@�        

[07/02/2013 15:07:44] - Read data
02 03 08 00 ef 00 f2 ff 04 00 00 cc 5d          	....�.��...�]   

[07/02/2013 15:07:45] - Written data
02 03 10 00 00 04 40 fa                         	......@�        

[07/02/2013 15:07:46] - Read data
02 03 08 00 f0 00 f2 ff 04 00 00 22 9c          	....�.��..."�   

[07/02/2013 15:07:46] - Written data
02 03 10 00 00 04 40 fa                         	......@�        

[07/02/2013 15:07:47] - Read data
02 03 08 00 f1 00 f2 ff 04 00 00 32 5c          	....�.��...2\   

[07/02/2013 15:07:47] - Written data
02 03 10 00 00 04 40 fa                         	......@�        

[07/02/2013 15:07:48] - Read data
02 03 08 00 f2 00 f2 ff 04 00 00 01 5c          	....�.��....\   

[07/02/2013 15:07:48] - Written data
02 03 10 00 00 04 40 fa                         	......@�        

[07/02/2013 15:07:49] - Read data
02 03 08 00 f3 00 f2 ff 04 00 00 11 9c          	....�.��....�   

[07/02/2013 15:07:49] - Written data
02 03 10 00 00 04 40 fa                         	......@�        

[07/02/2013 15:07:50] - Read data
02 03 08 00 f3 00 f2 ff 04 00 00 11 9c          	....�.��....�   

[07/02/2013 15:07:50] - Written data
02 03 10 00 00 04 40 fa                         	......@�        

[07/02/2013 15:07:51] - Read data
02 03 08 00 f3 00 f2 ff 04 00 00 11 9c          	....�.��....�   

[07/02/2013 15:07:51] - Written data
02 03 10 00 00 04 40 fa                         	......@�        

[07/02/2013 15:07:52] - Read data
02 03 08 00 f3 00 f2 ff 04 00 00 11 9c          	....�.��....�   

[07/02/2013 15:07:52] - Written data
02 03 10 00 00 04 40 fa                         	......@�        

[07/02/2013 15:07:53] - Read data
02 03 08 00 f4 00 f2 ff 04 00 00 67 5c          	....�.��...g\   

[07/02/2013 15:07:53] - Written data
02 03 10 00 00 04 40 fa                         	......@�        

[07/02/2013 15:07:54] - Read data
02 03 08 00 f4 00 f2 ff 04 00 00 67 5c          	....�.��...g\   

[07/02/2013 15:07:54] - Written data
02 03 10 00 00 04 40 fa                         	......@�        

[07/02/2013 15:07:55] - Read data
02 03 08 00 f4 00 f2 ff 04 00 00 67 5c          	....�.��...g\   

[07/02/2013 15:07:55] - Written data
02 03 10 00 00 04 40 fa                         	......@�        

[07/02/2013 15:07:56] - Read data
02 03 08 00 f4 00 f2 ff 04 00 00 67 5c          	....�.��...g\   

[07/02/2013 15:07:56] - Written data
02 03 10 00 00 04 40 fa                         	......@�        

[07/02/2013 15:07:57] - Read data
02 03 08 00 f4 00 f2 ff 04 00 00 67 5c          	....�.��...g\   

[07/02/2013 15:07:57] - Written data
02 03 10 00 00 04 40 fa                         	......@�        

[07/02/2013 15:07:58] - Read data
02 03 08 00 f4 00 f2 ff 04 00 00 67 5c          	....�.��...g\   

[07/02/2013 15:07:58] - Written data
02 03 10 00 00 04 40 fa                         	......@�        

[07/02/2013 15:07:59] - Read data
02 03 08 00 f4 00 f2 ff 04 00 00 67 5c          	....�.��...g\   

[07/02/2013 15:07:59] - Written data
02 03 10 00 00 04 40 fa                         	......@�        

[07/02/2013 15:08:00] - Read data
02 03 08 00 f4 00 f2 ff 04 00 00 67 5c          	....�.��...g\   

[07/02/2013 15:08:00] - Written data
02 03 10 00 00 04 40 fa                         	......@�        

[07/02/2013 15:08:01] - Read data
02 03 08 00 f4 00 f2 ff 04 00 00 67 5c          	....�.��...g\   

[07/02/2013 15:08:01] - Written data
02 03 10 00 00 04 40 fa                         	......@�        

[07/02/2013 15:08:02] - Read data
02 03 08 00 f4 00 f2 ff 04 00 00 67 5c          	....�.��...g\   

[07/02/2013 15:08:02] - Written data
02 03 10 00 00 04 40 fa                         	......@�        

[07/02/2013 15:08:03] - Read data
02 03 08 00 f4 00 f2 ff 04 00 00 67 5c          	....�.��...g\   

[07/02/2013 15:08:03] - Written data
02 03 10 00 00 04 40 fa                         	......@�        

[07/02/2013 15:08:04] - Read data
02 03 08 00 f4 00 f2 ff 04 00 00 67 5c          	....�.��...g\   

[07/02/2013 15:08:04] - Written data
02 03 10 00 00 04 40 fa                         	......@�        

[07/02/2013 15:08:05] - Read data
02 03 08 00 f4 00 f2 ff 04 00 00 67 5c          	....�.��...g\   

[07/02/2013 15:08:05] - Written data
02 03 10 00 00 04 40 fa                         	......@�        

[07/02/2013 15:08:06] - Read data
02 03 08 00 f4 00 f2 ff 04 00 00 67 5c          	....�.��...g\   

[07/02/2013 15:08:06] - Written data
02 03 10 00 00 04 40 fa                         	......@�        

[07/02/2013 15:08:07] - Read data
02 03 08 00 f4 00 f3 ff 04 00 00 5a 9c          	....�.��...Z�   

[07/02/2013 15:08:07] - Written data
02 03 10 00 00 04 40 fa                         	......@�        

[07/02/2013 15:08:08] - Read data
02 03 08 00 f4 00 f3 ff 04 00 00 5a 9c          	....�.��...Z�   

[07/02/2013 15:08:08] - Written data
02 03 10 00 00 04 40 fa                         	......@�        

[07/02/2013 15:08:09] - Read data
02 03 08 00 f4 00 f3 ff 04 00 00 5a 9c          	....�.��...Z�   

[07/02/2013 15:08:09] - Written data
02 03 10 00 00 04 40 fa                         	......@�        

[07/02/2013 15:08:10] - Read data
02 03 08 00 f4 00 f3 ff 04 00 00 5a 9c          	....�.��...Z�   

[07/02/2013 15:08:10] - Written data
02 03 10 00 00 04 40 fa                         	......@�        

[07/02/2013 15:08:11] - Read data
02 03 08 00 f4 00 f3 ff 04 00 00 5a 9c          	....�.��...Z�   

[07/02/2013 15:08:11] - Written data
02 03 10 00 00 04 40 fa                         	......@�        

[07/02/2013 15:08:12] - Read data
02 03 08 00 f4 00 f3 ff 04 00 00 5a 9c          	....�.��...Z�   

[07/02/2013 15:08:12] - Written data
02 03 10 00 00 04 40 fa                         	......@�        

[07/02/2013 15:08:13] - Read data
02 03 08 00 f4 00 f3 ff 04 00 00 5a 9c          	....�.��...Z�   

[07/02/2013 15:08:13] - Written data
02 03 10 00 00 04 40 fa                         	......@�        

[07/02/2013 15:08:14] - Read data
02 03 08 00 f4 00 f3 ff 04 00 00 5a 9c          	....�.��...Z�   

[07/02/2013 15:08:14] - Written data
02 03 10 00 00 04 40 fa                         	......@�        

[07/02/2013 15:08:15] - Read data
02 03 08 00 f4 00 f3 ff 04 00 00 5a 9c          	....�.��...Z�   

[07/02/2013 15:08:15] - Written data
02 03 10 00 00 04 40 fa                         	......@�        

[07/02/2013 15:08:16] - Read data
02 03 08 00 f5 00 f3 ff 04 00 00 4a 5c          	....�.��...J\   

[07/02/2013 15:08:17] - Written data
02 03 10 00 00 04 40 fa                         	......@�        

[07/02/2013 15:08:17] - Read data
02 03 08 00 f5 00 f3 ff 04 00 00 4a 5c          	....�.��...J\   

[07/02/2013 15:08:18] - Written data
02 03 10 00 00 04 40 fa                         	......@�        

[07/02/2013 15:08:18] - Read data
02 03 08 00 f5 00 f3 ff 04 00 00 4a 5c          	....�.��...J\   

[07/02/2013 15:08:18] - Written data
02 03 10 00 00 04 40 fa                         	......@�        

[07/02/2013 15:08:19] - Read data
02 03 08 00 f5 00 f3 ff 04 00 00 4a 5c          	....�.��...J\   

[07/02/2013 15:08:19] - Written data
02 03 10 00 00 04 40 fa                         	......@�        

[07/02/2013 15:08:20] - Read data
02 03 08 00 f6 00 f3 ff 04 00 00 79 5c          	....�.��...y\   

[07/02/2013 15:08:21] - Written data
02 03 10 00 00 04 40 fa                         	......@�        

[07/02/2013 15:08:21] - Read data
02 03 08 00 f6 00 f3 ff 04 00 00 79 5c          	....�.��...y\   

[07/02/2013 15:08:22] - Written data
02 03 10 00 00 04 40 fa                         	......@�        

[07/02/2013 15:08:22] - Read data
02 03 08 00 f6 00 f3 ff 04 00 00 79 5c          	....�.��...y\   

[07/02/2013 15:08:23] - Written data
02 03 10 00 00 04 40 fa                         	......@�        

[07/02/2013 15:08:23] - Read data
02 03 08 00 f7 00 f3 ff 04 00 00 69 9c          	....�.��...i�   

[07/02/2013 15:08:24] - Written data
02 03 10 00 00 04 40 fa                         	......@�        

[07/02/2013 15:08:24] - Read data
02 03 08 00 f7 00 f3 ff 04 00 00 69 9c          	....�.��...i�   

[07/02/2013 15:08:25] - Written data
02 03 10 00 00 04 40 fa                         	......@�        

[07/02/2013 15:08:25] - Read data
02 03 08 00 f7 00 f3 ff 04 00 00 69 9c          	....�.��...i�   

[07/02/2013 15:08:26] - Written data
02 03 10 00 00 04 40 fa                         	......@�        

[07/02/2013 15:08:26] - Read data
02 03 08 00 f7 00 f3 ff 04 00 00 69 9c          	....�.��...i�   

[07/02/2013 15:08:27] - Written data
02 03 10 00 00 04 40 fa                         	......@�        

[07/02/2013 15:08:27] - Read data
02 03 08 00 f8 00 f3 ff 04 00 00 96 9c          	....�.��...��   

[07/02/2013 15:08:28] - Written data
02 03 10 00 00 04 40 fa                         	......@�        

[07/02/2013 15:08:28] - Read data
02 03 08 00 f8 00 f3 ff 04 00 00 96 9c          	....�.��...��   

[07/02/2013 15:08:29] - Written data
02 03 10 00 00 04 40 fa                         	......@�        

[07/02/2013 15:08:29] - Read data
02 03 08 00 f8 00 f3 ff 04 00 00 96 9c          	....�.��...��   

[07/02/2013 15:08:30] - Written data
02 03 10 00 00 04 40 fa                         	......@�        

[07/02/2013 15:08:30] - Read data
02 03 08 00 f8 00 f3 ff 04 00 00 96 9c          	....�.��...��   

[07/02/2013 15:08:31] - Written data
02 03 10 00 00 04 40 fa                         	......@�        

[07/02/2013 15:08:31] - Read data
02 03 08 00 f8 00 f3 ff 04 00 00 96 9c          	....�.��...��   

[07/02/2013 15:08:32] - Written data
02 03 10 00 00 04 40 fa                         	......@�        

[07/02/2013 15:08:32] - Read data
02 03 08 00 f8 00 f3 ff 04 00 00 96 9c          	....�.��...��   

[07/02/2013 15:08:33] - Written data
02 03 10 00 00 04 40 fa                         	......@�        

[07/02/2013 15:08:33] - Read data
02 03 08 00 f7 00 f3 ff 04 00 00 69 9c          	....�.��...i�   

[07/02/2013 15:08:34] - Written data
02 03 10 00 00 04 40 fa                         	......@�        

[07/02/2013 15:08:34] - Read data
02 03 08 00 f7 00 f3 ff 04 00 00 69 9c          	....�.��...i�   

[07/02/2013 15:08:35] - Written data
02 03 10 00 00 04 40 fa                         	......@�        

[07/02/2013 15:08:35] - Read data
02 03 08 00 f7 00 f3 ff 04 00 00 69 9c          	....�.��...i�   

[07/02/2013 15:08:36] - Written data
02 03 10 00 00 04 40 fa                         	......@�        

[07/02/2013 15:08:36] - Read data
02 03 08 00 f7 00 f5 ff 04 00 00 e1 9c          	....�.��...�   

[07/02/2013 15:08:37] - Written data
02 03 10 00 00 04 40 fa                         	......@�        

[07/02/2013 15:08:37] - Read data
02 03 08 00 f7 00 f5 ff 04 00 00 e1 9c          	....�.��...�   

[07/02/2013 15:08:38] - Written data
02 03 10 00 00 04 40 fa                         	......@�        

[07/02/2013 15:08:38] - Read data
02 03 08 00 f7 00 f5 ff 04 00 00 e1 9c          	....�.��...�   

[07/02/2013 15:08:39] - Written data
02 03 10 00 00 04 40 fa                         	......@�        

[07/02/2013 15:08:39] - Read data
02 03 08 00 f7 00 f5 ff 04 00 00 e1 9c          	....�.��...�   

[07/02/2013 15:08:40] - Written data
02 03 10 00 00 04 40 fa                         	......@�        

[07/02/2013 15:08:40] - Read data
02 03 08 00 f7 00 f5 ff 04 00 00 e1 9c          	....�.��...�   

[07/02/2013 15:08:41] - Written data
02 03 10 00 00 04 40 fa                         	......@�        

[07/02/2013 15:08:41] - Read data
02 03 08 00 f7 00 f5 ff 04 00 00 e1 9c          	....�.��...�   

[07/02/2013 15:08:42] - Written data
02 03 10 00 00 04 40 fa                         	......@�        

[07/02/2013 15:08:42] - Read data
02 03 08 00 f7 00 f5 ff 04 00 00 e1 9c          	....�.��...�   

[07/02/2013 15:08:43] - Written data
02 03 10 00 00 04 40 fa                         	......@�        

[07/02/2013 15:08:43] - Read data
02 03 08 00 f7 00 f5 ff 04 00 00 e1 9c          	....�.��...�   

[07/02/2013 15:08:44] - Written data
02 03 10 00 00 04 40 fa                         	......@�        

[07/02/2013 15:08:44] - Read data
02 03 08 00 f7 00 f5 ff 04 00 00 e1 9c          	....�.��...�   

[07/02/2013 15:08:45] - Written data
02 03 10 00 00 04 40 fa                         	......@�        

[07/02/2013 15:08:45] - Read data
02 03 08 00 f7 00 f5 ff 04 00 00 e1 9c          	....�.��...�   

[07/02/2013 15:08:46] - Written data
02 03 10 00 00 04 40 fa                         	......@�        

[07/02/2013 15:08:46] - Read data
02 03 08 00 f7 00 fa ff 04 00 00 b5 9d          	....�.��...��   

[07/02/2013 15:08:47] - Written data
02 03 10 00 00 04 40 fa                         	......@�        

[07/02/2013 15:08:47] - Read data
02 03 08 00 f7 00 fa ff 04 00 00 b5 9d          	....�.��...��   

[07/02/2013 15:08:48] - Written data
02 03 10 00 00 04 40 fa                         	......@�        

[07/02/2013 15:08:48] - Read data
02 03 08 00 f7 00 fa ff 04 00 00 b5 9d          	....�.��...��   

[07/02/2013 15:08:49] - Written data
02 03 10 00 00 04 40 fa                         	......@�        

[07/02/2013 15:08:49] - Read data
02 03 08 00 f8 00 fa ff 04 00 00 4a 9d          	....�.��...J�   

[07/02/2013 15:08:50] - Written data
02 03 10 00 00 04 40 fa                         	......@�        

[07/02/2013 15:08:50] - Read data
02 03 08 00 f8 00 fa ff 04 00 00 4a 9d          	....�.��...J�   

[07/02/2013 15:08:51] - Written data
02 03 10 00 00 04 40 fa                         	......@�        

[07/02/2013 15:08:52] - Read data
02 03 08 00 f9 00 fa ff 04 00 00 5a 5d          	....�.��...Z]   

[07/02/2013 15:08:52] - Written data
02 03 10 00 00 04 40 fa                         	......@�        

[07/02/2013 15:08:53] - Read data
02 03 08 00 fa 00 fa ff 04 00 00 69 5d          	....�.��...i]   

[07/02/2013 15:08:53] - Written data
02 03 10 00 00 04 40 fa                         	......@�        

[07/02/2013 15:08:54] - Read data
02 03 08 00 fb 00 fa ff 04 00 00 79 9d          	....�.��...y�   

[07/02/2013 15:08:54] - Written data
02 03 10 00 00 04 40 fa                         	......@�        

[07/02/2013 15:08:55] - Read data
02 03 08 00 fc 00 8c ff 04 00 00 c6 96          	....�.��...Ɩ   

[07/02/2013 15:08:55] - Written data
02 03 10 00 00 04 40 fa                         	......@�        

[07/02/2013 15:08:56] - Read data
02 03 08 00 fc 00 8c ff 04 00 00 c6 96          	....�.��...Ɩ   

[07/02/2013 15:08:56] - Written data
02 03 10 00 00 04 40 fa                         	......@�        

[07/02/2013 15:08:57] - Read data
02 03 08 00 fe 00 8c ff 04 00 00 e5 56          	....�.��...�V   

[07/02/2013 15:08:57] - Written data
02 03 10 00 00 04 40 fa                         	......@�        

[07/02/2013 15:08:58] - Read data
02 03 08 00 fe 00 8c ff 04 00 00 e5 56          	....�.��...�V   

[07/02/2013 15:08:58] - Written data
02 03 10 00 00 04 40 fa                         	......@�        

[07/02/2013 15:08:59] - Read data
02 03 08 00 ff 00 8c ff 04 00 00 f5 96          	....�.��...��   

[07/02/2013 15:08:59] - Written data
02 03 10 00 00 04 40 fa                         	......@�        

[07/02/2013 15:09:00] - Read data
02 03 08 00 ff 00 8c ff 04 00 00 f5 96          	....�.��...��   

[07/02/2013 15:09:00] - Written data
02 03 10 00 00 04 40 fa                         	......@�        

[07/02/2013 15:09:01] - Read data
02 03 08 00 fe 00 8c ff 04 00 00 e5 56          	....�.��...�V   

[07/02/2013 15:09:01] - Written data
02 03 10 00 00 04 40 fa                         	......@�        

[07/02/2013 15:09:02] - Read data
02 03 08 00 fd 00 8c ff 04 00 00 d6 56          	....�.��...�V   

[07/02/2013 15:09:02] - Written data
02 03 10 00 00 04 40 fa                         	......@�        

[07/02/2013 15:09:03] - Read data
02 03 08 00 fb 00 8c ff 04 00 00 b0 56          	....�.��...�V   

[07/02/2013 15:09:03] - Written data
02 03 10 00 00 04 40 fa                         	......@�        

[07/02/2013 15:09:04] - Read data
02 03 08 00 fb 00 8c ff 04 00 00 b0 56          	....�.��...�V   

[07/02/2013 15:09:04] - Written data
02 03 10 00 00 04 40 fa                         	......@�        

[07/02/2013 15:09:05] - Read data
02 03 08 00 fa 00 5a ff 04 00 00 e9 44          	....�.Z�...�D   

[07/02/2013 15:09:05] - Written data
02 03 10 00 00 04 40 fa                         	......@�        

[07/02/2013 15:09:06] - Read data
02 03 08 00 f9 00 5a ff 04 00 00 da 44          	....�.Z�...�D   

[07/02/2013 15:09:06] - Written data
02 03 10 00 00 04 40 fa                         	......@�        

[07/02/2013 15:09:07] - Read data
02 03 08 00 f8 00 5a ff 04 00 00 ca 84          	....�.Z�...ʄ   

[07/02/2013 15:09:07] - Written data
02 03 10 00 00 04 40 fa                         	......@�        

[07/02/2013 15:09:08] - Read data
02 03 08 00 f7 00 5a ff 04 00 00 35 84          	....�.Z�...5�   

[07/02/2013 15:09:08] - Written data
02 03 10 00 00 04 40 fa                         	......@�        

[07/02/2013 15:09:09] - Read data
02 03 08 00 f6 00 5a ff 04 00 00 25 44          	....�.Z�...%D   

[07/02/2013 15:09:09] - Written data
02 03 10 00 00 04 40 fa                         	......@�        

[07/02/2013 15:09:10] - Read data
02 03 08 00 f5 00 5a ff 04 00 00 16 44          	....�.Z�....D   

[07/02/2013 15:09:10] - Written data
02 03 10 00 00 04 40 fa                         	......@�        

[07/02/2013 15:09:11] - Read data
02 03 08 00 f4 00 5a ff 04 00 00 06 84          	....�.Z�....�   

[07/02/2013 15:09:11] - Written data
02 03 10 00 00 04 40 fa                         	......@�        

[07/02/2013 15:09:12] - Read data
02 03 08 00 f4 00 5a ff 04 00 00 06 84          	....�.Z�....�   

[07/02/2013 15:09:12] - Written data
02 03 10 00 00 04 40 fa                         	......@�        

[07/02/2013 15:09:13] - Read data
02 03 08 00 f3 00 5a ff 04 00 00 70 44          	....�.Z�...pD   

[07/02/2013 15:09:13] - Written data
02 03 10 00 00 04 40 fa                         	......@�        

[07/02/2013 15:09:14] - Read data
02 03 08 00 f2 00 5a ff 04 00 00 60 84          	....�.Z�...`�   

[07/02/2013 15:09:14] - Written data
02 03 10 00 00 04 40 fa                         	......@�        

[07/02/2013 15:09:15] - Read data
02 03 08 00 f2 00 5a ff 04 00 00 60 84          	....�.Z�...`�   

[07/02/2013 15:09:15] - Written data
02 03 10 00 00 04 40 fa                         	......@�        

[07/02/2013 15:09:16] - Read data
02 03 08 00 f0 00 5a ff 04 00 00 43 44          	....�.Z�...CD   

[07/02/2013 15:09:16] - Written data
02 03 10 00 00 04 40 fa                         	......@�        

[07/02/2013 15:09:17] - Read data
02 03 08 00 f0 00 5a ff 04 00 00 43 44          	....�.Z�...CD   

[07/02/2013 15:09:17] - Written data
02 03 10 00 00 04 40 fa                         	......@�        

[07/02/2013 15:09:18] - Read data
02 03 08 00 f0 00 5a ff 04 00 00 43 44          	....�.Z�...CD   

[07/02/2013 15:09:18] - Written data
02 03 10 00 00 04 40 fa                         	......@�        

[07/02/2013 15:09:19] - Read data
02 03 08 00 ee 00 5a ff 04 00 00 bd 45          	....�.Z�...�E   

[07/02/2013 15:09:19] - Written data
02 03 10 00 00 04 40 fa                         	......@�        

[07/02/2013 15:09:20] - Read data
02 03 08 00 ed 00 5a ff 04 00 00 8e 45          	....�.Z�...�E   

[07/02/2013 15:09:20] - Written data
02 03 10 00 00 04 40 fa                         	......@�        

[07/02/2013 15:09:21] - Read data
02 03 08 00 ed 00 5a ff 04 00 00 8e 45          	....�.Z�...�E   

[07/02/2013 15:09:21] - Written data
02 03 10 00 00 04 40 fa                         	......@�        

[07/02/2013 15:09:22] - Read data
02 03 08 00 eb 00 5a ff 04 00 00 e8 45          	....�.Z�...�E   

[07/02/2013 15:09:22] - Written data
02 03 10 00 00 04 40 fa                         	......@�        

[07/02/2013 15:09:23] - Read data
02 03 08 00 eb 00 5a ff 04 00 00 e8 45          	....�.Z�...�E   

[07/02/2013 15:09:23] - Written data
02 03 10 00 00 04 40 fa                         	......@�        

[07/02/2013 15:09:24] - Read data
02 03 08 00 eb 00 5a ff 04 00 00 e8 45          	....�.Z�...�E   

[07/02/2013 15:09:24] - Written data
02 03 10 00 00 04 40 fa                         	......@�        

[07/02/2013 15:09:25] - Read data
02 03 08 00 ea 00 5a ff 04 00 00 f8 85          	....�.Z�...�   

[07/02/2013 15:09:25] - Written data
02 03 10 00 00 04 40 fa                         	......@�        

[07/02/2013 15:09:26] - Read data
02 03 08 00 e8 00 5a ff 04 00 00 db 45          	....�.Z�...�E   

[07/02/2013 15:09:26] - Written data
02 03 10 00 00 04 40 fa                         	......@�        

[07/02/2013 15:09:27] - Read data
02 03 08 00 e8 00 5a ff 04 00 00 db 45          	....�.Z�...�E   

[07/02/2013 15:09:27] - Written data
02 03 10 00 00 04 40 fa                         	......@�        

[07/02/2013 15:09:28] - Read data
02 03 08 00 e8 00 5a ff 04 00 00 db 45          	....�.Z�...�E   

[07/02/2013 15:09:28] - Written data
02 03 10 00 00 04 40 fa                         	......@�        

[07/02/2013 15:09:29] - Read data
02 03 08 00 e7 00 5a ff 04 00 00 24 45          	....�.Z�...$E   

[07/02/2013 15:09:30] - Written data
02 03 10 00 00 04 40 fa                         	......@�        

[07/02/2013 15:09:30] - Read data
02 03 08 00 e6 00 5a ff 04 00 00 34 85          	....�.Z�...4�   

[07/02/2013 15:09:31] - Written data
02 03 10 00 00 04 40 fa                         	......@�        

[07/02/2013 15:09:31] - Read data
02 03 08 00 e6 00 5a ff 04 00 00 34 85          	....�.Z�...4�   

[07/02/2013 15:09:32] - Written data
02 03 10 00 00 04 40 fa                         	......@�        

[07/02/2013 15:09:32] - Read data
02 03 08 00 e5 00 5a ff 04 00 00 07 85          	....�.Z�....�   

[07/02/2013 15:09:33] - Written data
02 03 10 00 00 04 40 fa                         	......@�        

[07/02/2013 15:09:33] - Read data
02 03 08 00 e4 00 5a ff 04 00 00 17 45          	....�.Z�....E   

[07/02/2013 15:09:34] - Written data
02 03 10 00 00 04 40 fa                         	......@�        

[07/02/2013 15:09:34] - Read data
02 03 08 00 e3 00 5a ff 04 00 00 61 85          	....�.Z�...a�   

[07/02/2013 15:09:35] - Written data
02 03 10 00 00 04 40 fa                         	......@�        

[07/02/2013 15:09:35] - Read data
02 03 08 00 e2 00 28 ff 04 00 00 49 4e          	....�.(�...IN   

[07/02/2013 15:09:36] - Written data
02 03 10 00 00 04 40 fa                         	......@�        

[07/02/2013 15:09:36] - Read data
02 03 08 00 e2 00 28 ff 04 00 00 49 4e          	....�.(�...IN   

[07/02/2013 15:09:37] - Written data
02 03 10 00 00 04 40 fa                         	......@�        

[07/02/2013 15:09:37] - Read data
02 03 08 00 e1 00 28 ff 04 00 00 7a 4e          	....�.(�...zN   

[07/02/2013 15:09:38] - Written data
02 03 10 00 00 04 40 fa                         	......@�        

[07/02/2013 15:09:38] - Read data
02 03 08 00 e0 00 28 ff 04 00 00 6a 8e          	....�.(�...j�   

[07/02/2013 15:09:39] - Written data
02 03 10 00 00 04 40 fa                         	......@�        

[07/02/2013 15:09:39] - Read data
02 03 08 00 df 00 28 ff 04 00 00 a5 8d          	....�.(�...��   

[07/02/2013 15:09:40] - Written data
02 03 10 00 00 04 40 fa                         	......@�        

[07/02/2013 15:09:40] - Read data
02 03 08 00 df 00 28 ff 04 00 00 a5 8d          	....�.(�...��   

[07/02/2013 15:09:41] - Written data
02 03 10 00 00 04 40 fa                         	......@�        

[07/02/2013 15:09:41] - Read data
02 03 08 00 df 00 28 ff 04 00 00 a5 8d          	....�.(�...��   

[07/02/2013 15:09:42] - Written data
02 03 10 00 00 04 40 fa                         	......@�        

[07/02/2013 15:09:42] - Read data
02 03 08 00 dd 00 28 ff 04 00 00 86 4d          	....�.(�...�M   

[07/02/2013 15:09:43] - Written data
02 03 10 00 00 04 40 fa                         	......@�        

[07/02/2013 15:09:43] - Read data
02 03 08 00 dd 00 28 ff 04 00 00 86 4d          	....�.(�...�M   

[07/02/2013 15:09:44] - Written data
02 03 10 00 00 04 40 fa                         	......@�        

[07/02/2013 15:09:44] - Read data
02 03 08 00 dc 00 28 ff 04 00 00 96 8d          	....�.(�...��   

[07/02/2013 15:09:45] - Written data
02 03 10 00 00 04 40 fa                         	......@�        

[07/02/2013 15:09:45] - Read data
02 03 08 00 db 00 28 ff 04 00 00 e0 4d          	....�.(�...�M   

[07/02/2013 15:09:46] - Written data
02 03 10 00 00 04 40 fa                         	......@�        

[07/02/2013 15:09:46] - Read data
02 03 08 00 db 00 28 ff 04 00 00 e0 4d          	....�.(�...�M   

[07/02/2013 15:09:47] - Written data
02 03 10 00 00 04 40 fa                         	......@�        

[07/02/2013 15:09:47] - Read data
02 03 08 00 da 00 28 ff 04 00 00 f0 8d          	....�.(�...��   

[07/02/2013 15:09:48] - Written data
02 03 10 00 00 04 40 fa                         	......@�        

[07/02/2013 15:09:48] - Read data
02 03 08 00 da 00 28 ff 04 00 00 f0 8d          	....�.(�...��   

[07/02/2013 15:09:49] - Written data
02 03 10 00 00 04 40 fa                         	......@�        

[07/02/2013 15:09:49] - Read data
02 03 08 00 d9 00 28 ff 04 00 00 c3 8d          	....�.(�...Í   

[07/02/2013 15:09:50] - Written data
02 03 10 00 00 04 40 fa                         	......@�        

[07/02/2013 15:09:50] - Read data
02 03 08 00 d8 00 28 ff 04 00 00 d3 4d          	....�.(�...�M   

[07/02/2013 15:09:51] - Written data
02 03 10 00 00 04 40 fa                         	......@�        

[07/02/2013 15:09:51] - Read data
02 03 08 00 d7 00 28 ff 04 00 00 2c 4d          	....�.(�...,M   

[07/02/2013 15:09:52] - Written data
02 03 10 00 00 04 40 fa                         	......@�        

[07/02/2013 15:09:52] - Read data
02 03 08 00 d7 00 28 ff 04 00 00 2c 4d          	....�.(�...,M   

[07/02/2013 15:09:53] - Written data
02 03 10 00 00 04 40 fa                         	......@�        

[07/02/2013 15:09:53] - Read data
02 03 08 00 d6 00 28 ff 04 00 00 3c 8d          	....�.(�...<�   

[07/02/2013 15:09:54] - Written data
02 03 10 00 00 04 40 fa                         	......@�        

[07/02/2013 15:09:54] - Read data
02 03 08 00 d6 00 28 ff 04 00 00 3c 8d          	....�.(�...<�   

[07/02/2013 15:09:55] - Written data
02 03 10 00 00 04 40 fa                         	......@�        

[07/02/2013 15:09:55] - Read data
02 03 08 00 d5 00 28 ff 04 00 00 0f 8d          	....�.(�....�   

[07/02/2013 15:09:56] - Written data
02 03 10 00 00 04 40 fa                         	......@�        

[07/02/2013 15:09:56] - Read data
02 03 08 00 d5 00 28 ff 04 00 00 0f 8d          	....�.(�....�   

[07/02/2013 15:09:57] - Written data
02 03 10 00 00 04 40 fa                         	......@�        

[07/02/2013 15:09:57] - Read data
02 03 08 00 d5 00 28 ff 04 00 00 0f 8d          	....�.(�....�   

[07/02/2013 15:09:58] - Written data
02 03 10 00 00 04 40 fa                         	......@�        

[07/02/2013 15:09:58] - Read data
02 03 08 00 d3 00 28 ff 04 00 00 69 8d          	....�.(�...i�   

[07/02/2013 15:09:59] - Written data
02 03 10 00 00 04 40 fa                         	......@�        

[07/02/2013 15:09:59] - Read data
02 03 08 00 d3 00 28 ff 04 00 00 69 8d          	....�.(�...i�   

[07/02/2013 15:10:00] - Written data
02 03 10 00 00 04 40 fa                         	......@�        

[07/02/2013 15:10:00] - Read data
02 03 08 00 d3 00 28 ff 04 00 00 69 8d          	....�.(�...i�   

[07/02/2013 15:10:01] - Written data
02 03 10 00 00 04 40 fa                         	......@�        

[07/02/2013 15:10:01] - Read data
02 03 08 00 d2 00 28 ff 04 00 00 79 4d          	....�.(�...yM   

[07/02/2013 15:10:02] - Written data
